name,type,start_time,duration,"ack","address","read","data"
"I2C [2]","start",-174.856101,5.00000006e-08,,,,
"I2C [2]","address",-174.856088,0.0001093,true,0x61,false,
"I2C [2]","data",-174.855972,0.0001083,true,,,0x88
"I2C [2]","start",-174.855851,5.00000006e-08,,,,
"I2C [2]","address",-174.855839,0.00010985,true,0x61,true,
"I2C [2]","data",-174.855724,9.935e-05,true,,,0x82
"I2C [2]","data",-174.855619,9.925e-05,true,,,0xD9
"I2C [2]","data",-174.855514,9.925e-05,false,,,0xB7
"I2C [2]","stop",-174.855404,5.00000006e-08,,,,
"I2C [2]","start",-174.85538,5.00000006e-08,,,,
"I2C [2]","address",-174.855368,0.00010945,true,0x61,false,
"I2C [2]","data",-174.855251,0.00010815,true,,,0x96
"I2C [2]","start",-174.85513,5.00000006e-08,,,,
"I2C [2]","address",-174.855117,0.0001093,true,0x61,true,
"I2C [2]","data",-174.855003,9.93e-05,true,,,0x05
"I2C [2]","data",-174.854898,9.935e-05,true,,,0x08
"I2C [2]","data",-174.854793,9.93e-05,false,,,0xF0
"I2C [2]","stop",-174.854683,4.99999987e-08,,,,
"I2C [2]","start",-174.854659,5.00000006e-08,,,,
"I2C [2]","address",-174.854647,0.0001093,true,0x61,false,
"I2C [2]","data",-174.85453,0.0001082,true,,,0x8C
"I2C [2]","start",-174.85441,5.00000006e-08,,,,
"I2C [2]","address",-174.854397,0.0001093,true,0x61,true,
"I2C [2]","data",-174.854282,9.93e-05,true,,,0x0D
"I2C [2]","data",-174.854177,9.935e-05,true,,,0xF8
"I2C [2]","data",-174.854072,9.93e-05,false,,,0x7D
"I2C [2]","stop",-174.853962,4.99999987e-08,,,,
"I2C [2]","start",-174.853939,5.00000006e-08,,,,
"I2C [2]","address",-174.853926,0.0001093,true,0x61,false,
"I2C [2]","data",-174.85381,0.00010815,true,,,0x97
"I2C [2]","start",-174.853689,4.99999987e-08,,,,
"I2C [2]","address",-174.853676,0.00010955,true,0x61,true,
"I2C [2]","data",-174.853562,9.94e-05,true,,,0x03
"I2C [2]","data",-174.853457,9.94e-05,true,,,0x18
"I2C [2]","data",-174.853352,9.93e-05,false,,,0xE8
"I2C [2]","stop",-174.853241,4.99999987e-08,,,,
"I2C [2]","start",-174.853218,4.99999987e-08,,,,
"I2C [2]","address",-174.853205,0.00010935,true,0x61,false,
"I2C [2]","data",-174.853089,0.0001082,true,,,0x8B
"I2C [2]","start",-174.852968,4.99999987e-08,,,,
"I2C [2]","address",-174.852955,0.0001094,true,0x61,true,
"I2C [2]","data",-174.852841,9.93e-05,true,,,0xB6
"I2C [2]","data",-174.852736,9.94e-05,true,,,0x06
"I2C [2]","data",-174.852631,9.935e-05,false,,,0x33
"I2C [2]","stop",-174.852521,5.00000006e-08,,,,
"I2C [2]","start",-174.85219,4.99999987e-08,,,,
"I2C [2]","address",-174.852178,0.00010945,true,0x62,false,
"I2C [2]","data",-174.852061,0.0001082,true,,,0x88
"I2C [2]","start",-174.85194,5.00000006e-08,,,,
"I2C [2]","address",-174.851928,0.0001093,true,0x62,true,
"I2C [2]","data",-174.851813,9.935e-05,true,,,0x82
"I2C [2]","data",-174.851708,9.935e-05,true,,,0xD9
"I2C [2]","data",-174.851604,9.935e-05,false,,,0x81
"I2C [2]","stop",-174.851493,4.99999987e-08,,,,
"I2C [2]","start",-174.85147,5.00000006e-08,,,,
"I2C [2]","address",-174.851457,0.00011095,true,0x62,false,
"I2C [2]","data",-174.851339,0.0001083,true,,,0x96
"I2C [2]","start",-174.851218,4.99999987e-08,,,,
"I2C [2]","address",-174.851206,0.0001094,true,0x62,true,
"I2C [2]","data",-174.851091,9.945e-05,true,,,0x00
"I2C [2]","data",-174.850986,9.94e-05,true,,,0x08
"I2C [2]","data",-174.850881,9.935e-05,false,,,0x87
"I2C [2]","stop",-174.850771,5.00000006e-08,,,,
"I2C [2]","start",-174.850747,5.00000006e-08,,,,
"I2C [2]","address",-174.850735,0.00011125,true,0x62,false,
"I2C [2]","data",-174.850616,0.0001083,true,,,0x8C
"I2C [2]","start",-174.850496,5.00000006e-08,,,,
"I2C [2]","address",-174.850483,0.0001092,true,0x62,true,
"I2C [2]","data",-174.850369,9.945e-05,true,,,0x00
"I2C [2]","data",-174.850264,9.94e-05,true,,,0xF8
"I2C [2]","data",-174.850159,9.925e-05,false,,,0xA2
"I2C [2]","stop",-174.850048,5.00000006e-08,,,,
"I2C [2]","start",-174.850025,5.00000006e-08,,,,
"I2C [2]","address",-174.850012,0.0001113,true,0x62,false,
"I2C [2]","data",-174.849894,0.0001082,true,,,0x97
"I2C [2]","start",-174.849773,4.99999987e-08,,,,
"I2C [2]","address",-174.84976,0.00010945,true,0x62,true,
"I2C [2]","data",-174.849646,9.945e-05,true,,,0x00
"I2C [2]","data",-174.849541,9.94e-05,true,,,0x18
"I2C [2]","data",-174.849436,9.93e-05,false,,,0xE1
"I2C [2]","stop",-174.849326,4.99999987e-08,,,,
"I2C [2]","start",-174.849302,5.00000006e-08,,,,
"I2C [2]","address",-174.84929,0.00010935,true,0x62,false,
"I2C [2]","data",-174.849173,0.00010825,true,,,0x8B
"I2C [2]","start",-174.849052,4.99999987e-08,,,,
"I2C [2]","address",-174.84904,0.00010925,true,0x62,true,
"I2C [2]","data",-174.848925,9.93e-05,true,,,0x25
"I2C [2]","data",-174.84882,9.945e-05,true,,,0x00
"I2C [2]","data",-174.848715,9.93e-05,false,,,0xC9
"I2C [2]","stop",-174.848605,4.99999987e-08,,,,
"I2C [2]","start",-174.848269,5.00000006e-08,,,,
"I2C [2]","address",-174.848257,0.0001111,true,0x72,false,
"I2C [2]","data",-174.848138,0.0001083,true,,,0x00
"I2C [2]","data",-174.848023,0.0001083,true,,,0x00
"I2C [2]","data",-174.847907,0.00010825,true,,,0x65
"I2C [2]","stop",-174.847781,5.00000006e-08,,,,
"I2C [2]","start",-174.84777,5.00000006e-08,,,,
"I2C [2]","address",-174.847758,0.00010955,true,0x72,false,
"I2C [2]","data",-174.847641,0.00010825,true,,,0x88
"I2C [2]","start",-174.84752,5.00000006e-08,,,,
"I2C [2]","address",-174.847507,0.00010955,true,0x72,true,
"I2C [2]","data",-174.847393,9.935e-05,true,,,0x82
"I2C [2]","data",-174.847288,9.93e-05,true,,,0xD9
"I2C [2]","data",-174.847183,9.92e-05,false,,,0xA6
"I2C [2]","stop",-174.847073,4.99999987e-08,,,,
"I2C [2]","start",-174.847049,5.00000006e-08,,,,
"I2C [2]","address",-174.847037,0.00010925,true,0x72,false,
"I2C [2]","data",-174.84692,0.0001082,true,,,0x96
"I2C [2]","start",-174.8468,5.00000006e-08,,,,
"I2C [2]","address",-174.846787,0.00010955,true,0x72,true,
"I2C [2]","data",-174.846672,9.93e-05,true,,,0x0A
"I2C [2]","data",-174.846567,9.935e-05,true,,,0x08
"I2C [2]","data",-174.846462,9.925e-05,false,,,0x22
"I2C [2]","stop",-174.846352,4.99999987e-08,,,,
"I2C [2]","start",-174.846329,5.00000006e-08,,,,
"I2C [2]","address",-174.846316,0.00011055,true,0x72,false,
"I2C [2]","data",-174.846198,0.0001082,true,,,0x8C
"I2C [2]","start",-174.846077,4.99999987e-08,,,,
"I2C [2]","address",-174.846065,0.00010935,true,0x72,true,
"I2C [2]","data",-174.84595,9.93e-05,true,,,0x28
"I2C [2]","data",-174.845845,9.935e-05,true,,,0xF8
"I2C [2]","data",-174.84574,9.93e-05,false,,,0x83
"I2C [2]","stop",-174.84563,5.00000006e-08,,,,
"I2C [2]","start",-174.845607,5.00000006e-08,,,,
"I2C [2]","address",-174.845594,0.0001093,true,0x72,false,
"I2C [2]","data",-174.845478,0.00010815,true,,,0x97
"I2C [2]","start",-174.845357,5.00000006e-08,,,,
"I2C [2]","address",-174.845344,0.0001093,true,0x72,true,
"I2C [2]","data",-174.84523,9.935e-05,true,,,0x0B
"I2C [2]","data",-174.845125,9.94e-05,true,,,0x08
"I2C [2]","data",-174.84502,9.935e-05,false,,,0x21
"I2C [2]","stop",-174.844909,5.00000006e-08,,,,
"I2C [2]","start",-174.844886,5.00000006e-08,,,,
"I2C [2]","address",-174.844873,0.00010945,true,0x72,false,
"I2C [2]","data",-174.844757,0.00010825,true,,,0x8B
"I2C [2]","start",-174.844636,4.99999987e-08,,,,
"I2C [2]","address",-174.844623,0.00011105,true,0x72,true,
"I2C [2]","data",-174.844507,9.935e-05,true,,,0xFD
"I2C [2]","data",-174.844402,9.94e-05,true,,,0x03
"I2C [2]","data",-174.844297,9.93e-05,false,,,0xF5
"I2C [2]","stop",-174.844187,5.00000006e-08,,,,
"I2C [2]","start",-174.844164,5.00000006e-08,,,,
"I2C [2]","address",-174.844151,0.00010955,true,0x72,false,
"I2C [2]","data",-174.844034,0.0001083,true,,,0x00
"I2C [2]","data",-174.843919,0.0001083,true,,,0x00
"I2C [2]","data",-174.843803,0.00010815,true,,,0x65
"I2C [2]","stop",-174.843677,5.00000006e-08,,,,
"I2C [2]","start",-174.84332,5.00000006e-08,,,,
"I2C [2]","address",-174.843308,0.0001094,true,0x76,false,
"I2C [2]","data",-174.843191,0.0001083,true,,,0x00
"I2C [2]","data",-174.843076,0.0001083,true,,,0x00
"I2C [2]","data",-174.84296,0.0001082,true,,,0x34
"I2C [2]","stop",-174.842834,5.00000006e-08,,,,
"I2C [2]","start",-174.842823,5.00000006e-08,,,,
"I2C [2]","address",-174.84281,0.0001093,true,0x76,false,
"I2C [2]","data",-174.842694,0.00010825,true,,,0x88
"I2C [2]","start",-174.842573,4.99999987e-08,,,,
"I2C [2]","address",-174.842561,0.0001072,true,0x76,true,
"I2C [2]","data",-174.842444,9.93e-05,true,,,0xBA
"I2C [2]","data",-174.842339,9.93e-05,true,,,0xD9
"I2C [2]","data",-174.842234,9.935e-05,false,,,0xBF
"I2C [2]","stop",-174.842124,5.00000006e-08,,,,
"I2C [2]","start",-174.842101,4.99999987e-08,,,,
"I2C [2]","address",-174.842088,0.00010935,true,0x76,false,
"I2C [2]","data",-174.841971,0.0001082,true,,,0x96
"I2C [2]","start",-174.841851,5.00000006e-08,,,,
"I2C [2]","address",-174.841838,0.0001093,true,0x76,true,
"I2C [2]","data",-174.841724,9.945e-05,true,,,0x00
"I2C [2]","data",-174.841619,9.94e-05,true,,,0x08
"I2C [2]","data",-174.841514,9.93e-05,false,,,0xE8
"I2C [2]","stop",-174.841403,5.00000006e-08,,,,
"I2C [2]","start",-174.84138,4.99999987e-08,,,,
"I2C [2]","address",-174.841367,0.0001094,true,0x76,false,
"I2C [2]","data",-174.841251,0.0001083,true,,,0x8C
"I2C [2]","start",-174.84113,4.99999987e-08,,,,
"I2C [2]","address",-174.841117,0.00010925,true,0x76,true,
"I2C [2]","data",-174.841003,9.945e-05,true,,,0x00
"I2C [2]","data",-174.840898,9.94e-05,true,,,0xF8
"I2C [2]","data",-174.840793,9.93e-05,false,,,0xCD
"I2C [2]","stop",-174.840683,5.00000006e-08,,,,
"I2C [2]","start",-174.840659,5.00000006e-08,,,,
"I2C [2]","address",-174.840647,0.00010985,true,0x76,false,
"I2C [2]","data",-174.84053,0.0001082,true,,,0x97
"I2C [2]","start",-174.840409,5.00000006e-08,,,,
"I2C [2]","address",-174.840396,0.00010945,true,0x76,true,
"I2C [2]","data",-174.840282,9.945e-05,true,,,0x00
"I2C [2]","data",-174.840177,9.94e-05,true,,,0x08
"I2C [2]","data",-174.840072,9.935e-05,false,,,0xFE
"I2C [2]","stop",-174.839961,5.00000006e-08,,,,
"I2C [2]","start",-174.839938,5.00000006e-08,,,,
"I2C [2]","address",-174.839925,0.0001093,true,0x76,false,
"I2C [2]","data",-174.839809,0.00010825,true,,,0x8B
"I2C [2]","start",-174.839688,5.00000006e-08,,,,
"I2C [2]","address",-174.839675,0.00010725,true,0x76,true,
"I2C [2]","data",-174.839559,9.935e-05,true,,,0x28
"I2C [2]","data",-174.839454,9.945e-05,true,,,0x00
"I2C [2]","data",-174.839349,9.935e-05,false,,,0x4F
"I2C [2]","stop",-174.839239,5.00000006e-08,,,,
"I2C [2]","start",-174.839215,5.00000006e-08,,,,
"I2C [2]","address",-174.839203,0.0001094,true,0x76,false,
"I2C [2]","data",-174.839086,0.0001083,true,,,0x00
"I2C [2]","data",-174.83897,0.0001083,true,,,0x00
"I2C [2]","data",-174.838855,0.0001082,true,,,0x34
"I2C [2]","stop",-174.838729,5.00000006e-08,,,,
"I2C [2]","start",-174.838372,5.00000006e-08,,,,
"I2C [2]","address",-174.83836,0.0001096,true,0x78,false,
"I2C [2]","data",-174.838243,0.0001084,true,,,0x00
"I2C [2]","data",-174.838127,0.00010825,true,,,0x00
"I2C [2]","data",-174.838012,0.00010815,true,,,0x6C
"I2C [2]","stop",-174.837885,5.00000006e-08,,,,
"I2C [2]","start",-174.837875,5.00000006e-08,,,,
"I2C [2]","address",-174.837862,0.0001096,true,0x78,false,
"I2C [2]","data",-174.837745,0.0001082,true,,,0x88
"I2C [2]","start",-174.837625,5.00000006e-08,,,,
"I2C [2]","address",-174.837612,0.00011005,true,0x78,true,
"I2C [2]","data",-174.837497,9.93e-05,true,,,0xBF
"I2C [2]","data",-174.837392,9.935e-05,true,,,0xE0
"I2C [2]","data",-174.837287,9.92e-05,false,,,0xAD
"I2C [2]","stop",-174.837177,5.00000006e-08,,,,
"I2C [2]","start",-174.837153,4.99999987e-08,,,,
"I2C [2]","address",-174.837141,0.00010955,true,0x78,false,
"I2C [2]","data",-174.837024,0.000108,true,,,0x96
"I2C [2]","start",-174.836903,5.00000006e-08,,,,
"I2C [2]","address",-174.836891,0.00010945,true,0x78,true,
"I2C [2]","data",-174.836774,9.925e-05,true,,,0xB0
"I2C [2]","data",-174.83667,9.93e-05,true,,,0xBA
"I2C [2]","data",-174.836565,9.93e-05,false,,,0x4C
"I2C [2]","stop",-174.836454,5.00000006e-08,,,,
"I2C [2]","start",-174.836431,5.00000006e-08,,,,
"I2C [2]","address",-174.836418,0.0001101,true,0x78,false,
"I2C [2]","data",-174.836301,0.00010825,true,,,0x8C
"I2C [2]","start",-174.83618,5.00000006e-08,,,,
"I2C [2]","address",-174.836168,0.0001095,true,0x78,true,
"I2C [2]","data",-174.836052,9.925e-05,true,,,0xA0
"I2C [2]","data",-174.835947,9.93e-05,true,,,0xBA
"I2C [2]","data",-174.835842,9.935e-05,false,,,0xE0
"I2C [2]","stop",-174.835732,5.00000006e-08,,,,
"I2C [2]","start",-174.835708,4.99999987e-08,,,,
"I2C [2]","address",-174.835696,0.00010945,true,0x78,false,
"I2C [2]","data",-174.835579,0.00010825,true,,,0x97
"I2C [2]","start",-174.835458,4.99999987e-08,,,,
"I2C [2]","address",-174.835446,0.00010945,true,0x78,true,
"I2C [2]","data",-174.835329,9.925e-05,true,,,0xD0
"I2C [2]","data",-174.835225,9.935e-05,true,,,0xD2
"I2C [2]","data",-174.83512,9.93e-05,false,,,0xB0
"I2C [2]","stop",-174.835009,5.00000006e-08,,,,
"I2C [2]","start",-174.834986,5.00000006e-08,,,,
"I2C [2]","address",-174.834973,0.00010955,true,0x78,false,
"I2C [2]","data",-174.834857,0.0001082,true,,,0x8B
"I2C [2]","start",-174.834736,5.00000006e-08,,,,
"I2C [2]","address",-174.834723,0.00010965,true,0x78,true,
"I2C [2]","data",-174.834608,9.925e-05,true,,,0xB5
"I2C [2]","data",-174.834504,9.945e-05,true,,,0x00
"I2C [2]","data",-174.834399,9.93e-05,false,,,0xBB
"I2C [2]","stop",-174.834288,4.99999987e-08,,,,
"I2C [2]","start",-174.834265,5.00000006e-08,,,,
"I2C [2]","address",-174.834252,0.00011065,true,0x78,false,
"I2C [2]","data",-174.834134,0.00010845,true,,,0x00
"I2C [2]","data",-174.834019,0.00010825,true,,,0x2F
"I2C [2]","data",-174.833903,0.0001082,true,,,0xA1
"I2C [2]","stop",-174.833777,5.00000006e-08,,,,
"I2C [2]","start",-174.833422,5.00000006e-08,,,,
"I2C [2]","address",-174.83341,0.0001093,true,0x7A,false,
"I2C [2]","data",-174.833293,0.00010845,true,,,0x00
"I2C [2]","data",-174.833177,0.0001083,true,,,0x00
"I2C [2]","data",-174.833062,0.00010825,true,,,0xC7
"I2C [2]","stop",-174.832935,5.00000006e-08,,,,
"I2C [2]","start",-174.832925,5.00000006e-08,,,,
"I2C [2]","address",-174.832912,0.00010955,true,0x7A,false,
"I2C [2]","data",-174.832796,0.00010825,true,,,0x88
"I2C [2]","start",-174.832675,5.00000006e-08,,,,
"I2C [2]","address",-174.832662,0.0001101,true,0x7A,true,
"I2C [2]","data",-174.832547,9.945e-05,true,,,0x00
"I2C [2]","data",-174.832442,9.94e-05,true,,,0xE0
"I2C [2]","data",-174.832337,9.935e-05,false,,,0x05
"I2C [2]","stop",-174.832227,5.00000006e-08,,,,
"I2C [2]","start",-174.832203,4.99999987e-08,,,,
"I2C [2]","address",-174.832191,0.0001094,true,0x7A,false,
"I2C [2]","data",-174.832074,0.0001082,true,,,0x96
"I2C [2]","start",-174.831953,5.00000006e-08,,,,
"I2C [2]","address",-174.831941,0.00010935,true,0x7A,true,
"I2C [2]","data",-174.831824,9.945e-05,true,,,0x00
"I2C [2]","data",-174.831719,9.94e-05,true,,,0x80
"I2C [2]","data",-174.831614,9.935e-05,false,,,0x81
"I2C [2]","stop",-174.831503,4.99999987e-08,,,,
"I2C [2]","start",-174.83148,5.00000006e-08,,,,
"I2C [2]","address",-174.831467,0.0001094,true,0x7A,false,
"I2C [2]","data",-174.831351,0.00010825,true,,,0x8C
"I2C [2]","start",-174.83123,5.00000006e-08,,,,
"I2C [2]","address",-174.831217,0.00010955,true,0x7A,true,
"I2C [2]","data",-174.8311,9.945e-05,true,,,0x00
"I2C [2]","data",-174.830995,9.94e-05,true,,,0x80
"I2C [2]","data",-174.830891,9.93e-05,false,,,0x7A
"I2C [2]","stop",-174.83078,5.00000006e-08,,,,
"I2C [2]","start",-174.830757,5.00000006e-08,,,,
"I2C [2]","address",-174.830744,0.00011115,true,0x7A,false,
"I2C [2]","data",-174.830626,0.0001082,true,,,0x97
"I2C [2]","start",-174.830505,5.00000006e-08,,,,
"I2C [2]","address",-174.830493,0.00010945,true,0x7A,true,
"I2C [2]","data",-174.830375,9.94e-05,true,,,0x00
"I2C [2]","data",-174.83027,9.93e-05,true,,,0x80
"I2C [2]","data",-174.830166,9.925e-05,false,,,0x97
"I2C [2]","stop",-174.830055,5.00000006e-08,,,,
"I2C [2]","start",-174.830032,4.99999987e-08,,,,
"I2C [2]","address",-174.830019,0.00010925,true,0x7A,false,
"I2C [2]","data",-174.829903,0.00010815,true,,,0x8B
"I2C [2]","start",-174.829782,5.00000006e-08,,,,
"I2C [2]","address",-174.829769,0.0001094,true,0x7A,true,
"I2C [2]","data",-174.829655,9.94e-05,true,,,0x00
"I2C [2]","data",-174.82955,9.94e-05,true,,,0x00
"I2C [2]","data",-174.829445,9.925e-05,false,,,0x91
"I2C [2]","stop",-174.829335,5.00000006e-08,,,,
"I2C [2]","start",-174.829311,5.00000006e-08,,,,
"I2C [2]","address",-174.829299,0.00010925,true,0x7A,false,
"I2C [2]","data",-174.829182,0.0001084,true,,,0x00
"I2C [2]","data",-174.829066,0.0001082,true,,,0x2F
"I2C [2]","data",-174.828951,0.0001082,true,,,0x0A
"I2C [2]","stop",-174.828825,5.00000006e-08,,,,
"I2C [2]","start",-174.828473,5.00000006e-08,,,,
"I2C [2]","address",-174.82846,0.00010935,true,0x70,false,
"I2C [2]","data",-174.828343,0.00010845,true,,,0x00
"I2C [2]","data",-174.828228,0.00010825,true,,,0x00
"I2C [2]","data",-174.828112,0.00010825,true,,,0xCE
"I2C [2]","stop",-174.827986,4.99999987e-08,,,,
"I2C [2]","start",-174.827975,4.99999987e-08,,,,
"I2C [2]","address",-174.827963,0.00010945,true,0x70,false,
"I2C [2]","data",-174.827846,0.00010825,true,,,0x88
"I2C [2]","start",-174.827725,5.00000006e-08,,,,
"I2C [2]","address",-174.827713,0.0001096,true,0x70,true,
"I2C [2]","data",-174.827598,9.94e-05,true,,,0xC0
"I2C [2]","data",-174.827493,9.94e-05,true,,,0xE0
"I2C [2]","data",-174.827388,9.93e-05,false,,,0x5C
"I2C [2]","stop",-174.827278,5.00000006e-08,,,,
"I2C [2]","start",-174.827254,5.00000006e-08,,,,
"I2C [2]","address",-174.827242,0.00011055,true,0x70,false,
"I2C [2]","data",-174.827124,0.0001082,true,,,0x96
"I2C [2]","start",-174.827003,5.00000006e-08,,,,
"I2C [2]","address",-174.826991,0.0001095,true,0x70,true,
"I2C [2]","data",-174.826874,9.935e-05,true,,,0x74
"I2C [2]","data",-174.82677,9.935e-05,true,,,0xCA
"I2C [2]","data",-174.826665,9.93e-05,false,,,0x32
"I2C [2]","stop",-174.826554,5.00000006e-08,,,,
"I2C [2]","start",-174.826531,4.99999987e-08,,,,
"I2C [2]","address",-174.826518,0.0001095,true,0x70,false,
"I2C [2]","data",-174.826402,0.0001083,true,,,0x8C
"I2C [2]","start",-174.826281,5.00000006e-08,,,,
"I2C [2]","address",-174.826268,0.0001095,true,0x70,true,
"I2C [2]","data",-174.826152,9.93e-05,true,,,0xC0
"I2C [2]","data",-174.826048,9.935e-05,true,,,0xC2
"I2C [2]","data",-174.825943,9.93e-05,false,,,0xEA
"I2C [2]","stop",-174.825832,5.00000006e-08,,,,
"I2C [2]","start",-174.825809,4.99999987e-08,,,,
"I2C [2]","address",-174.825796,0.00010935,true,0x70,false,
"I2C [2]","data",-174.82568,0.0001082,true,,,0x97
"I2C [2]","start",-174.825559,4.99999987e-08,,,,
"I2C [2]","address",-174.825547,0.00010935,true,0x70,true,
"I2C [2]","data",-174.825431,9.94e-05,true,,,0x38
"I2C [2]","data",-174.825326,9.93e-05,true,,,0xCA
"I2C [2]","data",-174.825221,9.935e-05,false,,,0x83
"I2C [2]","stop",-174.82511,4.99999987e-08,,,,
"I2C [2]","start",-174.825087,5.00000006e-08,,,,
"I2C [2]","address",-174.825074,0.0001101,true,0x70,false,
"I2C [2]","data",-174.824957,0.00011595,true,,,0x8B
"I2C [2]","start",-174.824829,5.00000006e-08,,,,
"I2C [2]","address",-174.824816,0.0001111,true,0x70,true,
"I2C [2]","data",-174.8247,9.935e-05,true,,,0x81
"I2C [2]","data",-174.824595,9.945e-05,true,,,0x00
"I2C [2]","data",-174.82449,9.93e-05,false,,,0x86
"I2C [2]","stop",-174.82438,4.99999987e-08,,,,
"I2C [2]","start",-174.824356,5.00000006e-08,,,,
"I2C [2]","address",-174.824344,0.0001095,true,0x70,false,
"I2C [2]","data",-174.824227,0.00010845,true,,,0x00
"I2C [2]","data",-174.824111,0.0001082,true,,,0x2F
"I2C [2]","data",-174.823996,0.00010825,true,,,0x03
"I2C [2]","stop",-174.82387,5.00000006e-08,,,,
"I2C [2]","start",-174.823513,4.99999987e-08,,,,
"I2C [2]","address",-174.823501,0.00011005,true,0x74,false,
"I2C [2]","data",-174.823384,0.00010845,true,,,0x00
"I2C [2]","data",-174.823268,0.0001083,true,,,0x00
"I2C [2]","data",-174.823152,0.0001083,true,,,0x9F
"I2C [2]","stop",-174.823026,4.99999987e-08,,,,
"I2C [2]","start",-174.823015,5.00000006e-08,,,,
"I2C [2]","address",-174.823003,0.00010945,true,0x74,false,
"I2C [2]","data",-174.822886,0.00010825,true,,,0x88
