name,type,start_time,duration,"ack","address","read","data"
"I2C [2]","start",-174.856101,5.00000006e-08,,,,
"I2C [2]","address",-174.856088,0.0001093,true,0x61,false,
"I2C [2]","data",-174.855972,0.0001083,true,,,0x88
"I2C [2]","start",-174.855851,5.00000006e-08,,,,
"I2C [2]","address",-174.855839,0.00010985,true,0x61,true,
"I2C [2]","data",-174.855724,9.935e-05,true,,,0x82
"I2C [2]","data",-174.855619,9.925e-05,true,,,0xD9
"I2C [2]","data",-174.855514,9.925e-05,false,,,0xB7
"I2C [2]","stop",-174.855404,5.00000006e-08,,,,
"I2C [2]","start",-174.85538,5.00000006e-08,,,,
"I2C [2]","address",-174.855368,0.00010945,true,0x61,false,
"I2C [2]","data",-174.855251,0.00010815,true,,,0x96
"I2C [2]","start",-174.85513,5.00000006e-08,,,,
"I2C [2]","address",-174.855117,0.0001093,true,0x61,true,
"I2C [2]","data",-174.855003,9.93e-05,true,,,0x05
"I2C [2]","data",-174.854898,9.935e-05,true,,,0x08
"I2C [2]","data",-174.854793,9.93e-05,false,,,0xF0
"I2C [2]","stop",-174.854683,4.99999987e-08,,,,
"I2C [2]","start",-174.854659,5.00000006e-08,,,,
"I2C [2]","address",-174.854647,0.0001093,true,0x61,false,
"I2C [2]","data",-174.85453,0.0001082,true,,,0x8C
"I2C [2]","start",-174.85441,5.00000006e-08,,,,
"I2C [2]","address",-174.854397,0.0001093,true,0x61,true,
"I2C [2]","data",-174.854282,9.93e-05,true,,,0x0D
"I2C [2]","data",-174.854177,9.935e-05,true,,,0xF8
"I2C [2]","data",-174.854072,9.93e-05,false,,,0x7D
"I2C [2]","stop",-174.853962,4.99999987e-08,,,,
"I2C [2]","start",-174.853939,5.00000006e-08,,,,
"I2C [2]","address",-174.853926,0.0001093,true,0x61,false,
"I2C [2]","data",-174.85381,0.00010815,true,,,0x97
"I2C [2]","start",-174.853689,4.99999987e-08,,,,
"I2C [2]","address",-174.853676,0.00010955,true,0x61,true,
"I2C [2]","data",-174.853562,9.94e-05,true,,,0x03
"I2C [2]","data",-174.853457,9.94e-05,true,,,0x18
"I2C [2]","data",-174.853352,9.93e-05,false,,,0xE8
"I2C [2]","stop",-174.853241,4.99999987e-08,,,,
"I2C [2]","start",-174.853218,4.99999987e-08,,,,
"I2C [2]","address",-174.853205,0.00010935,true,0x61,false,
"I2C [2]","data",-174.853089,0.0001082,true,,,0x8B
"I2C [2]","start",-174.852968,4.99999987e-08,,,,
"I2C [2]","address",-174.852955,0.0001094,true,0x61,true,
"I2C [2]","data",-174.852841,9.93e-05,true,,,0xB6
"I2C [2]","data",-174.852736,9.94e-05,true,,,0x06
"I2C [2]","data",-174.852631,9.935e-05,false,,,0x33
"I2C [2]","stop",-174.852521,5.00000006e-08,,,,
"I2C [2]","start",-174.85219,4.99999987e-08,,,,
"I2C [2]","address",-174.852178,0.00010945,true,0x62,false,
"I2C [2]","data",-174.852061,0.0001082,true,,,0x88
"I2C [2]","start",-174.85194,5.00000006e-08,,,,
"I2C [2]","address",-174.851928,0.0001093,true,0x62,true,
"I2C [2]","data",-174.851813,9.935e-05,true,,,0x82
"I2C [2]","data",-174.851708,9.935e-05,true,,,0xD9
"I2C [2]","data",-174.851604,9.935e-05,false,,,0x81
"I2C [2]","stop",-174.851493,4.99999987e-08,,,,
"I2C [2]","start",-174.85147,5.00000006e-08,,,,
"I2C [2]","address",-174.851457,0.00011095,true,0x62,false,
"I2C [2]","data",-174.851339,0.0001083,true,,,0x96
"I2C [2]","start",-174.851218,4.99999987e-08,,,,
"I2C [2]","address",-174.851206,0.0001094,true,0x62,true,
"I2C [2]","data",-174.851091,9.945e-05,true,,,0x00
"I2C [2]","data",-174.850986,9.94e-05,true,,,0x08
"I2C [2]","data",-174.850881,9.935e-05,false,,,0x87
"I2C [2]","stop",-174.850771,5.00000006e-08,,,,
"I2C [2]","start",-174.850747,5.00000006e-08,,,,
"I2C [2]","address",-174.850735,0.00011125,true,0x62,false,
"I2C [2]","data",-174.850616,0.0001083,true,,,0x8C
"I2C [2]","start",-174.850496,5.00000006e-08,,,,
"I2C [2]","address",-174.850483,0.0001092,true,0x62,true,
"I2C [2]","data",-174.850369,9.945e-05,true,,,0x00
"I2C [2]","data",-174.850264,9.94e-05,true,,,0xF8
"I2C [2]","data",-174.850159,9.925e-05,false,,,0xA2
"I2C [2]","stop",-174.850048,5.00000006e-08,,,,
"I2C [2]","start",-174.850025,5.00000006e-08,,,,
"I2C [2]","address",-174.850012,0.0001113,true,0x62,false,
"I2C [2]","data",-174.849894,0.0001082,true,,,0x97
"I2C [2]","start",-174.849773,4.99999987e-08,,,,
"I2C [2]","address",-174.84976,0.00010945,true,0x62,true,
"I2C [2]","data",-174.849646,9.945e-05,true,,,0x00
"I2C [2]","data",-174.849541,9.94e-05,true,,,0x18
"I2C [2]","data",-174.849436,9.93e-05,false,,,0xE1
"I2C [2]","stop",-174.849326,4.99999987e-08,,,,
"I2C [2]","start",-174.849302,5.00000006e-08,,,,
"I2C [2]","address",-174.84929,0.00010935,true,0x62,false,
"I2C [2]","data",-174.849173,0.00010825,true,,,0x8B
"I2C [2]","start",-174.849052,4.99999987e-08,,,,
"I2C [2]","address",-174.84904,0.00010925,true,0x62,true,
"I2C [2]","data",-174.848925,9.93e-05,true,,,0x25
"I2C [2]","data",-174.84882,9.945e-05,true,,,0x00
"I2C [2]","data",-174.848715,9.93e-05,false,,,0xC9
"I2C [2]","stop",-174.848605,4.99999987e-08,,,,
"I2C [2]","start",-174.848269,5.00000006e-08,,,,
"I2C [2]","address",-174.848257,0.0001111,true,0x72,false,
"I2C [2]","data",-174.848138,0.0001083,true,,,0x00
"I2C [2]","data",-174.848023,0.0001083,true,,,0x00
"I2C [2]","data",-174.847907,0.00010825,true,,,0x65
"I2C [2]","stop",-174.847781,5.00000006e-08,,,,
"I2C [2]","start",-174.84777,5.00000006e-08,,,,
"I2C [2]","address",-174.847758,0.00010955,true,0x72,false,
"I2C [2]","data",-174.847641,0.00010825,true,,,0x88
"I2C [2]","start",-174.84752,5.00000006e-08,,,,
"I2C [2]","address",-174.847507,0.00010955,true,0x72,true,
"I2C [2]","data",-174.847393,9.935e-05,true,,,0x82
"I2C [2]","data",-174.847288,9.93e-05,true,,,0xD9
"I2C [2]","data",-174.847183,9.92e-05,false,,,0xA6
"I2C [2]","stop",-174.847073,4.99999987e-08,,,,
"I2C [2]","start",-174.847049,5.00000006e-08,,,,
"I2C [2]","address",-174.847037,0.00010925,true,0x72,false,
"I2C [2]","data",-174.84692,0.0001082,true,,,0x96
"I2C [2]","start",-174.8468,5.00000006e-08,,,,
"I2C [2]","address",-174.846787,0.00010955,true,0x72,true,
"I2C [2]","data",-174.846672,9.93e-05,true,,,0x0A
"I2C [2]","data",-174.846567,9.935e-05,true,,,0x08
"I2C [2]","data",-174.846462,9.925e-05,false,,,0x22
"I2C [2]","stop",-174.846352,4.99999987e-08,,,,
"I2C [2]","start",-174.846329,5.00000006e-08,,,,
"I2C [2]","address",-174.846316,0.00011055,true,0x72,false,
"I2C [2]","data",-174.846198,0.0001082,true,,,0x8C
"I2C [2]","start",-174.846077,4.99999987e-08,,,,
"I2C [2]","address",-174.846065,0.00010935,true,0x72,true,
"I2C [2]","data",-174.84595,9.93e-05,true,,,0x28
"I2C [2]","data",-174.845845,9.935e-05,true,,,0xF8
"I2C [2]","data",-174.84574,9.93e-05,false,,,0x83
"I2C [2]","stop",-174.84563,5.00000006e-08,,,,
"I2C [2]","start",-174.845607,5.00000006e-08,,,,
"I2C [2]","address",-174.845594,0.0001093,true,0x72,false,
"I2C [2]","data",-174.845478,0.00010815,true,,,0x97
"I2C [2]","start",-174.845357,5.00000006e-08,,,,
"I2C [2]","address",-174.845344,0.0001093,true,0x72,true,
"I2C [2]","data",-174.84523,9.935e-05,true,,,0x0B
"I2C [2]","data",-174.845125,9.94e-05,true,,,0x08
"I2C [2]","data",-174.84502,9.935e-05,false,,,0x21
"I2C [2]","stop",-174.844909,5.00000006e-08,,,,
"I2C [2]","start",-174.844886,5.00000006e-08,,,,
"I2C [2]","address",-174.844873,0.00010945,true,0x72,false,
"I2C [2]","data",-174.844757,0.00010825,true,,,0x8B
"I2C [2]","start",-174.844636,4.99999987e-08,,,,
"I2C [2]","address",-174.844623,0.00011105,true,0x72,true,
"I2C [2]","data",-174.844507,9.935e-05,true,,,0xFD
"I2C [2]","data",-174.844402,9.94e-05,true,,,0x03
"I2C [2]","data",-174.844297,9.93e-05,false,,,0xF5
"I2C [2]","stop",-174.844187,5.00000006e-08,,,,
"I2C [2]","start",-174.844164,5.00000006e-08,,,,
"I2C [2]","address",-174.844151,0.00010955,true,0x72,false,
"I2C [2]","data",-174.844034,0.0001083,true,,,0x00
"I2C [2]","data",-174.843919,0.0001083,true,,,0x00
"I2C [2]","data",-174.843803,0.00010815,true,,,0x65
"I2C [2]","stop",-174.843677,5.00000006e-08,,,,
"I2C [2]","start",-174.84332,5.00000006e-08,,,,
"I2C [2]","address",-174.843308,0.0001094,true,0x76,false,
"I2C [2]","data",-174.843191,0.0001083,true,,,0x00
"I2C [2]","data",-174.843076,0.0001083,true,,,0x00
"I2C [2]","data",-174.84296,0.0001082,true,,,0x34
"I2C [2]","stop",-174.842834,5.00000006e-08,,,,
"I2C [2]","start",-174.842823,5.00000006e-08,,,,
"I2C [2]","address",-174.84281,0.0001093,true,0x76,false,
"I2C [2]","data",-174.842694,0.00010825,true,,,0x88
"I2C [2]","start",-174.842573,4.99999987e-08,,,,
"I2C [2]","address",-174.842561,0.0001072,true,0x76,true,
"I2C [2]","data",-174.842444,9.93e-05,true,,,0xBA
"I2C [2]","data",-174.842339,9.93e-05,true,,,0xD9
"I2C [2]","data",-174.842234,9.935e-05,false,,,0xBF
"I2C [2]","stop",-174.842124,5.00000006e-08,,,,
"I2C [2]","start",-174.842101,4.99999987e-08,,,,
"I2C [2]","address",-174.842088,0.00010935,true,0x76,false,
"I2C [2]","data",-174.841971,0.0001082,true,,,0x96
"I2C [2]","start",-174.841851,5.00000006e-08,,,,
"I2C [2]","address",-174.841838,0.0001093,true,0x76,true,
"I2C [2]","data",-174.841724,9.945e-05,true,,,0x00
"I2C [2]","data",-174.841619,9.94e-05,true,,,0x08
"I2C [2]","data",-174.841514,9.93e-05,false,,,0xE8
"I2C [2]","stop",-174.841403,5.00000006e-08,,,,
"I2C [2]","start",-174.84138,4.99999987e-08,,,,
"I2C [2]","address",-174.841367,0.0001094,true,0x76,false,
"I2C [2]","data",-174.841251,0.0001083,true,,,0x8C
"I2C [2]","start",-174.84113,4.99999987e-08,,,,
"I2C [2]","address",-174.841117,0.00010925,true,0x76,true,
"I2C [2]","data",-174.841003,9.945e-05,true,,,0x00
"I2C [2]","data",-174.840898,9.94e-05,true,,,0xF8
"I2C [2]","data",-174.840793,9.93e-05,false,,,0xCD
"I2C [2]","stop",-174.840683,5.00000006e-08,,,,
"I2C [2]","start",-174.840659,5.00000006e-08,,,,
"I2C [2]","address",-174.840647,0.00010985,true,0x76,false,
"I2C [2]","data",-174.84053,0.0001082,true,,,0x97
"I2C [2]","start",-174.840409,5.00000006e-08,,,,
"I2C [2]","address",-174.840396,0.00010945,true,0x76,true,
"I2C [2]","data",-174.840282,9.945e-05,true,,,0x00
"I2C [2]","data",-174.840177,9.94e-05,true,,,0x08
"I2C [2]","data",-174.840072,9.935e-05,false,,,0xFE
"I2C [2]","stop",-174.839961,5.00000006e-08,,,,
"I2C [2]","start",-174.839938,5.00000006e-08,,,,
"I2C [2]","address",-174.839925,0.0001093,true,0x76,false,
"I2C [2]","data",-174.839809,0.00010825,true,,,0x8B
"I2C [2]","start",-174.839688,5.00000006e-08,,,,
"I2C [2]","address",-174.839675,0.00010725,true,0x76,true,
"I2C [2]","data",-174.839559,9.935e-05,true,,,0x28
"I2C [2]","data",-174.839454,9.945e-05,true,,,0x00
"I2C [2]","data",-174.839349,9.935e-05,false,,,0x4F
"I2C [2]","stop",-174.839239,5.00000006e-08,,,,
"I2C [2]","start",-174.839215,5.00000006e-08,,,,
"I2C [2]","address",-174.839203,0.0001094,true,0x76,false,
"I2C [2]","data",-174.839086,0.0001083,true,,,0x00
"I2C [2]","data",-174.83897,0.0001083,true,,,0x00
"I2C [2]","data",-174.838855,0.0001082,true,,,0x34
"I2C [2]","stop",-174.838729,5.00000006e-08,,,,
"I2C [2]","start",-174.838372,5.00000006e-08,,,,
"I2C [2]","address",-174.83836,0.0001096,true,0x78,false,
"I2C [2]","data",-174.838243,0.0001084,true,,,0x00
"I2C [2]","data",-174.838127,0.00010825,true,,,0x00
"I2C [2]","data",-174.838012,0.00010815,true,,,0x6C
"I2C [2]","stop",-174.837885,5.00000006e-08,,,,
"I2C [2]","start",-174.837875,5.00000006e-08,,,,
"I2C [2]","address",-174.837862,0.0001096,true,0x78,false,
"I2C [2]","data",-174.837745,0.0001082,true,,,0x88
"I2C [2]","start",-174.837625,5.00000006e-08,,,,
"I2C [2]","address",-174.837612,0.00011005,true,0x78,true,
"I2C [2]","data",-174.837497,9.93e-05,true,,,0xBF
"I2C [2]","data",-174.837392,9.935e-05,true,,,0xE0
"I2C [2]","data",-174.837287,9.92e-05,false,,,0xAD
"I2C [2]","stop",-174.837177,5.00000006e-08,,,,
"I2C [2]","start",-174.837153,4.99999987e-08,,,,
"I2C [2]","address",-174.837141,0.00010955,true,0x78,false,
"I2C [2]","data",-174.837024,0.000108,true,,,0x96
"I2C [2]","start",-174.836903,5.00000006e-08,,,,
"I2C [2]","address",-174.836891,0.00010945,true,0x78,true,
"I2C [2]","data",-174.836774,9.925e-05,true,,,0xB0
"I2C [2]","data",-174.83667,9.93e-05,true,,,0xBA
"I2C [2]","data",-174.836565,9.93e-05,false,,,0x4C
"I2C [2]","stop",-174.836454,5.00000006e-08,,,,
"I2C [2]","start",-174.836431,5.00000006e-08,,,,
"I2C [2]","address",-174.836418,0.0001101,true,0x78,false,
"I2C [2]","data",-174.836301,0.00010825,true,,,0x8C
"I2C [2]","start",-174.83618,5.00000006e-08,,,,
"I2C [2]","address",-174.836168,0.0001095,true,0x78,true,
"I2C [2]","data",-174.836052,9.925e-05,true,,,0xA0
"I2C [2]","data",-174.835947,9.93e-05,true,,,0xBA
"I2C [2]","data",-174.835842,9.935e-05,false,,,0xE0
"I2C [2]","stop",-174.835732,5.00000006e-08,,,,
"I2C [2]","start",-174.835708,4.99999987e-08,,,,
"I2C [2]","address",-174.835696,0.00010945,true,0x78,false,
"I2C [2]","data",-174.835579,0.00010825,true,,,0x97
"I2C [2]","start",-174.835458,4.99999987e-08,,,,
"I2C [2]","address",-174.835446,0.00010945,true,0x78,true,
"I2C [2]","data",-174.835329,9.925e-05,true,,,0xD0
"I2C [2]","data",-174.835225,9.935e-05,true,,,0xD2
"I2C [2]","data",-174.83512,9.93e-05,false,,,0xB0
"I2C [2]","stop",-174.835009,5.00000006e-08,,,,
"I2C [2]","start",-174.834986,5.00000006e-08,,,,
"I2C [2]","address",-174.834973,0.00010955,true,0x78,false,
"I2C [2]","data",-174.834857,0.0001082,true,,,0x8B
"I2C [2]","start",-174.834736,5.00000006e-08,,,,
"I2C [2]","address",-174.834723,0.00010965,true,0x78,true,
"I2C [2]","data",-174.834608,9.925e-05,true,,,0xB5
"I2C [2]","data",-174.834504,9.945e-05,true,,,0x00
"I2C [2]","data",-174.834399,9.93e-05,false,,,0xBB
"I2C [2]","stop",-174.834288,4.99999987e-08,,,,
"I2C [2]","start",-174.834265,5.00000006e-08,,,,
"I2C [2]","address",-174.834252,0.00011065,true,0x78,false,
"I2C [2]","data",-174.834134,0.00010845,true,,,0x00
"I2C [2]","data",-174.834019,0.00010825,true,,,0x2F
"I2C [2]","data",-174.833903,0.0001082,true,,,0xA1
"I2C [2]","stop",-174.833777,5.00000006e-08,,,,
"I2C [2]","start",-174.833422,5.00000006e-08,,,,
"I2C [2]","address",-174.83341,0.0001093,true,0x7A,false,
"I2C [2]","data",-174.833293,0.00010845,true,,,0x00
"I2C [2]","data",-174.833177,0.0001083,true,,,0x00
"I2C [2]","data",-174.833062,0.00010825,true,,,0xC7
"I2C [2]","stop",-174.832935,5.00000006e-08,,,,
"I2C [2]","start",-174.832925,5.00000006e-08,,,,
"I2C [2]","address",-174.832912,0.00010955,true,0x7A,false,
"I2C [2]","data",-174.832796,0.00010825,true,,,0x88
"I2C [2]","start",-174.832675,5.00000006e-08,,,,
"I2C [2]","address",-174.832662,0.0001101,true,0x7A,true,
"I2C [2]","data",-174.832547,9.945e-05,true,,,0x00
"I2C [2]","data",-174.832442,9.94e-05,true,,,0xE0
"I2C [2]","data",-174.832337,9.935e-05,false,,,0x05
"I2C [2]","stop",-174.832227,5.00000006e-08,,,,
"I2C [2]","start",-174.832203,4.99999987e-08,,,,
"I2C [2]","address",-174.832191,0.0001094,true,0x7A,false,
"I2C [2]","data",-174.832074,0.0001082,true,,,0x96
"I2C [2]","start",-174.831953,5.00000006e-08,,,,
"I2C [2]","address",-174.831941,0.00010935,true,0x7A,true,
"I2C [2]","data",-174.831824,9.945e-05,true,,,0x00
"I2C [2]","data",-174.831719,9.94e-05,true,,,0x80
"I2C [2]","data",-174.831614,9.935e-05,false,,,0x81
"I2C [2]","stop",-174.831503,4.99999987e-08,,,,
"I2C [2]","start",-174.83148,5.00000006e-08,,,,
"I2C [2]","address",-174.831467,0.0001094,true,0x7A,false,
"I2C [2]","data",-174.831351,0.00010825,true,,,0x8C
"I2C [2]","start",-174.83123,5.00000006e-08,,,,
"I2C [2]","address",-174.831217,0.00010955,true,0x7A,true,
"I2C [2]","data",-174.8311,9.945e-05,true,,,0x00
"I2C [2]","data",-174.830995,9.94e-05,true,,,0x80
"I2C [2]","data",-174.830891,9.93e-05,false,,,0x7A
"I2C [2]","stop",-174.83078,5.00000006e-08,,,,
"I2C [2]","start",-174.830757,5.00000006e-08,,,,
"I2C [2]","address",-174.830744,0.00011115,true,0x7A,false,
"I2C [2]","data",-174.830626,0.0001082,true,,,0x97
"I2C [2]","start",-174.830505,5.00000006e-08,,,,
"I2C [2]","address",-174.830493,0.00010945,true,0x7A,true,
"I2C [2]","data",-174.830375,9.94e-05,true,,,0x00
"I2C [2]","data",-174.83027,9.93e-05,true,,,0x80
"I2C [2]","data",-174.830166,9.925e-05,false,,,0x97
"I2C [2]","stop",-174.830055,5.00000006e-08,,,,
"I2C [2]","start",-174.830032,4.99999987e-08,,,,
"I2C [2]","address",-174.830019,0.00010925,true,0x7A,false,
"I2C [2]","data",-174.829903,0.00010815,true,,,0x8B
"I2C [2]","start",-174.829782,5.00000006e-08,,,,
"I2C [2]","address",-174.829769,0.0001094,true,0x7A,true,
"I2C [2]","data",-174.829655,9.94e-05,true,,,0x00
"I2C [2]","data",-174.82955,9.94e-05,true,,,0x00
"I2C [2]","data",-174.829445,9.925e-05,false,,,0x91
"I2C [2]","stop",-174.829335,5.00000006e-08,,,,
"I2C [2]","start",-174.829311,5.00000006e-08,,,,
"I2C [2]","address",-174.829299,0.00010925,true,0x7A,false,
"I2C [2]","data",-174.829182,0.0001084,true,,,0x00
"I2C [2]","data",-174.829066,0.0001082,true,,,0x2F
"I2C [2]","data",-174.828951,0.0001082,true,,,0x0A
"I2C [2]","stop",-174.828825,5.00000006e-08,,,,
"I2C [2]","start",-174.828473,5.00000006e-08,,,,
"I2C [2]","address",-174.82846,0.00010935,true,0x70,false,
"I2C [2]","data",-174.828343,0.00010845,true,,,0x00
"I2C [2]","data",-174.828228,0.00010825,true,,,0x00
"I2C [2]","data",-174.828112,0.00010825,true,,,0xCE
"I2C [2]","stop",-174.827986,4.99999987e-08,,,,
"I2C [2]","start",-174.827975,4.99999987e-08,,,,
"I2C [2]","address",-174.827963,0.00010945,true,0x70,false,
"I2C [2]","data",-174.827846,0.00010825,true,,,0x88
"I2C [2]","start",-174.827725,5.00000006e-08,,,,
"I2C [2]","address",-174.827713,0.0001096,true,0x70,true,
"I2C [2]","data",-174.827598,9.94e-05,true,,,0xC0
"I2C [2]","data",-174.827493,9.94e-05,true,,,0xE0
"I2C [2]","data",-174.827388,9.93e-05,false,,,0x5C
"I2C [2]","stop",-174.827278,5.00000006e-08,,,,
"I2C [2]","start",-174.827254,5.00000006e-08,,,,
"I2C [2]","address",-174.827242,0.00011055,true,0x70,false,
"I2C [2]","data",-174.827124,0.0001082,true,,,0x96
"I2C [2]","start",-174.827003,5.00000006e-08,,,,
"I2C [2]","address",-174.826991,0.0001095,true,0x70,true,
"I2C [2]","data",-174.826874,9.935e-05,true,,,0x74
"I2C [2]","data",-174.82677,9.935e-05,true,,,0xCA
"I2C [2]","data",-174.826665,9.93e-05,false,,,0x32
"I2C [2]","stop",-174.826554,5.00000006e-08,,,,
"I2C [2]","start",-174.826531,4.99999987e-08,,,,
"I2C [2]","address",-174.826518,0.0001095,true,0x70,false,
"I2C [2]","data",-174.826402,0.0001083,true,,,0x8C
"I2C [2]","start",-174.826281,5.00000006e-08,,,,
"I2C [2]","address",-174.826268,0.0001095,true,0x70,true,
"I2C [2]","data",-174.826152,9.93e-05,true,,,0xC0
"I2C [2]","data",-174.826048,9.935e-05,true,,,0xC2
"I2C [2]","data",-174.825943,9.93e-05,false,,,0xEA
"I2C [2]","stop",-174.825832,5.00000006e-08,,,,
"I2C [2]","start",-174.825809,4.99999987e-08,,,,
"I2C [2]","address",-174.825796,0.00010935,true,0x70,false,
"I2C [2]","data",-174.82568,0.0001082,true,,,0x97
"I2C [2]","start",-174.825559,4.99999987e-08,,,,
"I2C [2]","address",-174.825547,0.00010935,true,0x70,true,
"I2C [2]","data",-174.825431,9.94e-05,true,,,0x38
"I2C [2]","data",-174.825326,9.93e-05,true,,,0xCA
"I2C [2]","data",-174.825221,9.935e-05,false,,,0x83
"I2C [2]","stop",-174.82511,4.99999987e-08,,,,
"I2C [2]","start",-174.825087,5.00000006e-08,,,,
"I2C [2]","address",-174.825074,0.0001101,true,0x70,false,
"I2C [2]","data",-174.824957,0.00011595,true,,,0x8B
"I2C [2]","start",-174.824829,5.00000006e-08,,,,
"I2C [2]","address",-174.824816,0.0001111,true,0x70,true,
"I2C [2]","data",-174.8247,9.935e-05,true,,,0x81
"I2C [2]","data",-174.824595,9.945e-05,true,,,0x00
"I2C [2]","data",-174.82449,9.93e-05,false,,,0x86
"I2C [2]","stop",-174.82438,4.99999987e-08,,,,
"I2C [2]","start",-174.824356,5.00000006e-08,,,,
"I2C [2]","address",-174.824344,0.0001095,true,0x70,false,
"I2C [2]","data",-174.824227,0.00010845,true,,,0x00
"I2C [2]","data",-174.824111,0.0001082,true,,,0x2F
"I2C [2]","data",-174.823996,0.00010825,true,,,0x03
"I2C [2]","stop",-174.82387,5.00000006e-08,,,,
"I2C [2]","start",-174.823513,4.99999987e-08,,,,
"I2C [2]","address",-174.823501,0.00011005,true,0x74,false,
"I2C [2]","data",-174.823384,0.00010845,true,,,0x00
"I2C [2]","data",-174.823268,0.0001083,true,,,0x00
"I2C [2]","data",-174.823152,0.0001083,true,,,0x9F
"I2C [2]","stop",-174.823026,4.99999987e-08,,,,
"I2C [2]","start",-174.823015,5.00000006e-08,,,,
"I2C [2]","address",-174.823003,0.00010945,true,0x74,false,
"I2C [2]","data",-174.822886,0.00010825,true,,,0x88
"I2C [2]","start",-174.822765,5.00000006e-08,,,,
"I2C [2]","address",-174.822753,0.00011105,true,0x74,true,
"I2C [2]","data",-174.822637,9.945e-05,true,,,0x00
"I2C [2]","data",-174.822532,9.94e-05,true,,,0xE0
"I2C [2]","data",-174.822427,9.935e-05,false,,,0xF9
"I2C [2]","stop",-174.822316,5.00000006e-08,,,,
"I2C [2]","start",-174.822293,5.00000006e-08,,,,
"I2C [2]","address",-174.82228,0.0001094,true,0x74,false,
"I2C [2]","data",-174.822164,0.0001082,true,,,0x96
"I2C [2]","start",-174.822043,4.99999987e-08,,,,
"I2C [2]","address",-174.82203,0.00010935,true,0x74,true,
"I2C [2]","data",-174.821913,9.945e-05,true,,,0x00
"I2C [2]","data",-174.821808,9.935e-05,true,,,0x80
"I2C [2]","data",-174.821703,9.93e-05,false,,,0x7D
"I2C [2]","stop",-174.821593,4.99999987e-08,,,,
"I2C [2]","start",-174.82157,5.00000006e-08,,,,
"I2C [2]","address",-174.821557,0.00010945,true,0x74,false,
"I2C [2]","data",-174.82144,0.0001082,true,,,0x8C
"I2C [2]","start",-174.82132,5.00000006e-08,,,,
"I2C [2]","address",-174.821307,0.0001094,true,0x74,true,
"I2C [2]","data",-174.82119,9.94e-05,true,,,0x00
"I2C [2]","data",-174.821085,9.935e-05,true,,,0x80
"I2C [2]","data",-174.82098,9.925e-05,false,,,0x86
"I2C [2]","stop",-174.82087,5.00000006e-08,,,,
"I2C [2]","start",-174.820847,5.00000006e-08,,,,
"I2C [2]","address",-174.820834,0.0001111,true,0x74,false,
"I2C [2]","data",-174.820716,0.00010815,true,,,0x97
"I2C [2]","start",-174.820595,5.00000006e-08,,,,
"I2C [2]","address",-174.820582,0.00010945,true,0x74,true,
"I2C [2]","data",-174.820465,9.94e-05,true,,,0x00
"I2C [2]","data",-174.82036,9.935e-05,true,,,0x80
"I2C [2]","data",-174.820255,9.92e-05,false,,,0x6B
"I2C [2]","stop",-174.820145,5.00000006e-08,,,,
"I2C [2]","start",-174.820122,4.99999987e-08,,,,
"I2C [2]","address",-174.820109,0.00010935,true,0x74,false,
"I2C [2]","data",-174.819992,0.000108,true,,,0x8B
"I2C [2]","start",-174.819872,4.99999987e-08,,,,
"I2C [2]","address",-174.819859,0.00010925,true,0x74,true,
"I2C [2]","data",-174.819745,9.945e-05,true,,,0x00
"I2C [2]","data",-174.81964,9.945e-05,true,,,0x00
"I2C [2]","data",-174.819535,9.93e-05,false,,,0x6D
"I2C [2]","stop",-174.819424,5.00000006e-08,,,,
"I2C [2]","start",-174.819401,5.00000006e-08,,,,
"I2C [2]","address",-174.819389,0.00010945,true,0x74,false,
"I2C [2]","data",-174.819272,0.00010845,true,,,0x00
"I2C [2]","data",-174.819156,0.0001082,true,,,0x2F
"I2C [2]","data",-174.819041,0.00010815,true,,,0x52
"I2C [2]","stop",-174.818914,5.00000006e-08,,,,
"I2C [2]","start",-174.818563,5.00000006e-08,,,,
"I2C [2]","address",-174.818551,0.0001099,true,0x72,false,
"I2C [2]","data",-174.818433,0.0001083,true,,,0x00
"I2C [2]","data",-174.818318,0.00010825,true,,,0x01
"I2C [2]","data",-174.818203,0.0001082,true,,,0x62
"I2C [2]","stop",-174.818076,5.00000006e-08,,,,
"I2C [2]","start",-174.818066,5.00000006e-08,,,,
"I2C [2]","address",-174.818053,0.0001094,true,0x72,false,
"I2C [2]","data",-174.817936,0.00010825,true,,,0x88
"I2C [2]","start",-174.817816,5.00000006e-08,,,,
"I2C [2]","address",-174.817803,0.00010935,true,0x72,true,
"I2C [2]","data",-174.817688,9.935e-05,true,,,0x88
"I2C [2]","data",-174.817584,9.94e-05,true,,,0xE0
"I2C [2]","data",-174.817479,9.93e-05,false,,,0x8B
"I2C [2]","stop",-174.817368,5.00000006e-08,,,,
"I2C [2]","start",-174.817345,4.99999987e-08,,,,
"I2C [2]","address",-174.817332,0.0001094,true,0x72,false,
"I2C [2]","data",-174.817216,0.0001082,true,,,0x96
"I2C [2]","start",-174.817095,5.00000006e-08,,,,
"I2C [2]","address",-174.817082,0.00010925,true,0x72,true,
"I2C [2]","data",-174.816968,9.94e-05,true,,,0x01
"I2C [2]","data",-174.816863,9.945e-05,true,,,0x00
"I2C [2]","data",-174.816758,9.93e-05,false,,,0x8D
"I2C [2]","stop",-174.816648,4.99999987e-08,,,,
"I2C [2]","start",-174.816624,5.00000006e-08,,,,
"I2C [2]","address",-174.816612,0.00010925,true,0x72,false,
"I2C [2]","data",-174.816495,0.00010825,true,,,0x8C
"I2C [2]","start",-174.816374,5.00000006e-08,,,,
"I2C [2]","address",-174.816362,0.0001094,true,0x72,true,
"I2C [2]","data",-174.816247,9.94e-05,true,,,0x01
"I2C [2]","data",-174.816142,9.945e-05,true,,,0x00
"I2C [2]","data",-174.816037,9.93e-05,false,,,0x76
"I2C [2]","stop",-174.815927,4.99999987e-08,,,,
"I2C [2]","start",-174.815904,4.99999987e-08,,,,
"I2C [2]","address",-174.815891,0.0001094,true,0x72,false,
"I2C [2]","data",-174.815774,0.0001082,true,,,0x97
"I2C [2]","start",-174.815654,5.00000006e-08,,,,
"I2C [2]","address",-174.815641,0.00011015,true,0x72,true,
"I2C [2]","data",-174.815526,9.945e-05,true,,,0x00
"I2C [2]","data",-174.815421,9.945e-05,true,,,0x00
"I2C [2]","data",-174.815316,9.93e-05,false,,,0x8E
"I2C [2]","stop",-174.815205,4.99999987e-08,,,,
"I2C [2]","start",-174.815182,5.00000006e-08,,,,
"I2C [2]","address",-174.815169,0.0001094,true,0x72,false,
"I2C [2]","data",-174.815053,0.0001082,true,,,0x8B
"I2C [2]","start",-174.814932,4.99999987e-08,,,,
"I2C [2]","address",-174.814919,0.00010935,true,0x72,true,
"I2C [2]","data",-174.814805,9.935e-05,true,,,0x83
"I2C [2]","data",-174.8147,9.945e-05,true,,,0x00
"I2C [2]","data",-174.814595,9.93e-05,false,,,0x88
"I2C [2]","stop",-174.814485,4.99999987e-08,,,,
"I2C [2]","start",-174.814461,5.00000006e-08,,,,
"I2C [2]","address",-174.814449,0.00010935,true,0x72,false,
"I2C [2]","data",-174.814332,0.0001083,true,,,0x00
"I2C [2]","data",-174.814217,0.0001083,true,,,0x00
"I2C [2]","data",-174.814101,0.0001082,true,,,0x65
"I2C [2]","stop",-174.813975,4.99999987e-08,,,,
"I2C [2]","start",-174.813618,5.00000006e-08,,,,
"I2C [2]","address",-174.813606,0.00010945,true,0x76,false,
"I2C [2]","data",-174.813489,0.00010825,true,,,0x00
"I2C [2]","data",-174.813374,0.0001082,true,,,0x01
"I2C [2]","data",-174.813258,0.00010815,true,,,0x33
"I2C [2]","stop",-174.813132,5.00000006e-08,,,,
"I2C [2]","start",-174.813121,5.00000006e-08,,,,
"I2C [2]","address",-174.813108,0.00010925,true,0x76,false,
"I2C [2]","data",-174.812992,0.0001082,true,,,0x88
"I2C [2]","start",-174.812871,5.00000006e-08,,,,
"I2C [2]","address",-174.812859,0.00011085,true,0x76,true,
"I2C [2]","data",-174.812743,9.93e-05,true,,,0x87
"I2C [2]","data",-174.812638,9.935e-05,true,,,0xE0
"I2C [2]","data",-174.812533,9.935e-05,false,,,0x00
"I2C [2]","stop",-174.812422,5.00000006e-08,,,,
"I2C [2]","start",-174.812399,4.99999987e-08,,,,
"I2C [2]","address",-174.812386,0.0001094,true,0x76,false,
"I2C [2]","data",-174.81227,0.0001082,true,,,0x96
"I2C [2]","start",-174.812149,5.00000006e-08,,,,
"I2C [2]","address",-174.812136,0.0001093,true,0x76,true,
"I2C [2]","data",-174.812022,9.945e-05,true,,,0x00
"I2C [2]","data",-174.811917,9.94e-05,true,,,0x00
"I2C [2]","data",-174.811812,9.925e-05,false,,,0xD0
"I2C [2]","stop",-174.811701,5.00000006e-08,,,,
"I2C [2]","start",-174.811678,5.00000006e-08,,,,
"I2C [2]","address",-174.811666,0.0001102,true,0x76,false,
"I2C [2]","data",-174.811548,0.00010825,true,,,0x8C
"I2C [2]","start",-174.811427,5.00000006e-08,,,,
"I2C [2]","address",-174.811415,0.0001094,true,0x76,true,
"I2C [2]","data",-174.8113,9.945e-05,true,,,0x00
"I2C [2]","data",-174.811195,9.945e-05,true,,,0x00
"I2C [2]","data",-174.81109,9.93e-05,false,,,0x2B
"I2C [2]","stop",-174.81098,4.99999987e-08,,,,
"I2C [2]","start",-174.810957,5.00000006e-08,,,,
"I2C [2]","address",-174.810944,0.00010935,true,0x76,false,
"I2C [2]","data",-174.810827,0.00010825,true,,,0x97
"I2C [2]","start",-174.810707,5.00000006e-08,,,,
"I2C [2]","address",-174.810694,0.0001072,true,0x76,true,
"I2C [2]","data",-174.810577,9.945e-05,true,,,0x00
"I2C [2]","data",-174.810472,9.945e-05,true,,,0x00
"I2C [2]","data",-174.810367,9.93e-05,false,,,0xC6
"I2C [2]","stop",-174.810257,4.99999987e-08,,,,
"I2C [2]","start",-174.810234,5.00000006e-08,,,,
"I2C [2]","address",-174.810221,0.0001094,true,0x76,false,
"I2C [2]","data",-174.810105,0.0001082,true,,,0x8B
"I2C [2]","start",-174.809984,5.00000006e-08,,,,
"I2C [2]","address",-174.809971,0.00010935,true,0x76,true,
"I2C [2]","data",-174.809857,9.945e-05,true,,,0x00
"I2C [2]","data",-174.809752,9.945e-05,true,,,0x00
"I2C [2]","data",-174.809647,9.93e-05,false,,,0x49
"I2C [2]","stop",-174.809536,5.00000006e-08,,,,
"I2C [2]","start",-174.809513,4.99999987e-08,,,,
"I2C [2]","address",-174.8095,0.0001096,true,0x76,false,
"I2C [2]","data",-174.809384,0.0001083,true,,,0x00
"I2C [2]","data",-174.809268,0.0001083,true,,,0x00
"I2C [2]","data",-174.809153,0.00010825,true,,,0x34
"I2C [2]","stop",-174.809026,5.00000006e-08,,,,
"I2C [2]","start",-174.808674,5.00000006e-08,,,,
"I2C [2]","address",-174.808661,0.00010935,true,0x78,false,
"I2C [2]","data",-174.808545,0.00010845,true,,,0x00
"I2C [2]","data",-174.808429,0.0001083,true,,,0x01
"I2C [2]","data",-174.808314,0.0001082,true,,,0x6B
"I2C [2]","stop",-174.808187,5.00000024e-08,,,,
"I2C [2]","start",-174.808177,5.00000006e-08,,,,
"I2C [2]","address",-174.808164,0.0001106,true,0x78,false,
"I2C [2]","data",-174.808046,0.00010825,true,,,0x88
"I2C [2]","start",-174.807925,5.00000006e-08,,,,
"I2C [2]","address",-174.807913,0.00010945,true,0x78,true,
"I2C [2]","data",-174.807798,9.945e-05,true,,,0x00
"I2C [2]","data",-174.807693,9.94e-05,true,,,0xE0
"I2C [2]","data",-174.807588,9.935e-05,false,,,0x21
"I2C [2]","stop",-174.807478,4.99999987e-08,,,,
"I2C [2]","start",-174.807454,5.00000006e-08,,,,
"I2C [2]","address",-174.807442,0.00010965,true,0x78,false,
"I2C [2]","data",-174.807325,0.0001082,true,,,0x96
"I2C [2]","start",-174.807204,5.00000006e-08,,,,
"I2C [2]","address",-174.807192,0.0001093,true,0x78,true,
"I2C [2]","data",-174.807075,9.945e-05,true,,,0x00
"I2C [2]","data",-174.80697,9.94e-05,true,,,0x80
"I2C [2]","data",-174.806865,9.925e-05,false,,,0xA5
"I2C [2]","stop",-174.806754,5.00000006e-08,,,,
"I2C [2]","start",-174.806731,4.99999987e-08,,,,
"I2C [2]","address",-174.806718,0.00010935,true,0x78,false,
"I2C [2]","data",-174.806602,0.00010825,true,,,0x8C
"I2C [2]","start",-174.806481,5.00000006e-08,,,,
"I2C [2]","address",-174.806469,0.0001094,true,0x78,true,
"I2C [2]","data",-174.806352,9.95e-05,true,,,0x00
"I2C [2]","data",-174.806247,9.94e-05,true,,,0x80
"I2C [2]","data",-174.806142,9.93e-05,false,,,0x5E
"I2C [2]","stop",-174.806032,5.00000006e-08,,,,
"I2C [2]","start",-174.806008,4.99999987e-08,,,,
"I2C [2]","address",-174.805996,0.00010935,true,0x78,false,
"I2C [2]","data",-174.805879,0.0001082,true,,,0x97
"I2C [2]","start",-174.805758,4.99999987e-08,,,,
"I2C [2]","address",-174.805746,0.0001093,true,0x78,true,
"I2C [2]","data",-174.805629,9.925e-05,true,,,0xBC
"I2C [2]","data",-174.805525,9.93e-05,true,,,0xD2
"I2C [2]","data",-174.80542,9.93e-05,false,,,0xB9
"I2C [2]","stop",-174.805309,5.00000024e-08,,,,
"I2C [2]","start",-174.805286,5.00000006e-08,,,,
"I2C [2]","address",-174.805273,0.00010935,true,0x78,false,
"I2C [2]","data",-174.805157,0.0001082,true,,,0x8B
"I2C [2]","start",-174.805036,4.99999987e-08,,,,
"I2C [2]","address",-174.805023,0.00010945,true,0x78,true,
"I2C [2]","data",-174.804909,9.94e-05,true,,,0x00
"I2C [2]","data",-174.804804,9.94e-05,true,,,0x00
"I2C [2]","data",-174.804699,9.92e-05,false,,,0xB5
"I2C [2]","stop",-174.804588,5.00000006e-08,,,,
"I2C [2]","start",-174.804565,4.99999987e-08,,,,
"I2C [2]","address",-174.804552,0.0001093,true,0x78,false,
"I2C [2]","data",-174.804436,0.0001084,true,,,0x00
"I2C [2]","data",-174.80432,0.0001082,true,,,0x2F
"I2C [2]","data",-174.804205,0.00010815,true,,,0xA1
"I2C [2]","stop",-174.804079,5.00000006e-08,,,,
"I2C [2]","start",-174.803722,5.00000006e-08,,,,
"I2C [2]","address",-174.803709,0.0001093,true,0x7A,false,
"I2C [2]","data",-174.803593,0.00010845,true,,,0x00
"I2C [2]","data",-174.803477,0.0001082,true,,,0x01
"I2C [2]","data",-174.803361,0.00010825,true,,,0xC0
"I2C [2]","stop",-174.803235,4.99999987e-08,,,,
"I2C [2]","start",-174.803224,5.00000006e-08,,,,
"I2C [2]","address",-174.803212,0.0001096,true,0x7A,false,
"I2C [2]","data",-174.803095,0.00010825,true,,,0x88
"I2C [2]","start",-174.802974,5.00000006e-08,,,,
"I2C [2]","address",-174.802962,0.00011105,true,0x7A,true,
"I2C [2]","data",-174.802845,9.945e-05,true,,,0x00
"I2C [2]","data",-174.80274,9.94e-05,true,,,0xE0
"I2C [2]","data",-174.802635,9.935e-05,false,,,0x05
"I2C [2]","stop",-174.802525,5.00000006e-08,,,,
"I2C [2]","start",-174.802502,5.00000006e-08,,,,
"I2C [2]","address",-174.802489,0.00010945,true,0x7A,false,
"I2C [2]","data",-174.802372,0.0001082,true,,,0x96
"I2C [2]","start",-174.802252,5.00000006e-08,,,,
"I2C [2]","address",-174.802239,0.00011105,true,0x7A,true,
"I2C [2]","data",-174.80212,9.94e-05,true,,,0x00
"I2C [2]","data",-174.802015,9.945e-05,true,,,0x80
"I2C [2]","data",-174.80191,9.935e-05,false,,,0x81
"I2C [2]","stop",-174.8018,5.00000006e-08,,,,
"I2C [2]","start",-174.801777,4.99999987e-08,,,,
"I2C [2]","address",-174.801764,0.0001093,true,0x7A,false,
"I2C [2]","data",-174.801648,0.00010825,true,,,0x8C
"I2C [2]","start",-174.801527,4.99999987e-08,,,,
"I2C [2]","address",-174.801514,0.0001093,true,0x7A,true,
"I2C [2]","data",-174.801398,9.945e-05,true,,,0x00
"I2C [2]","data",-174.801293,9.94e-05,true,,,0x80
"I2C [2]","data",-174.801188,9.93e-05,false,,,0x7A
"I2C [2]","stop",-174.801077,5.00000006e-08,,,,
"I2C [2]","start",-174.801054,4.99999987e-08,,,,
"I2C [2]","address",-174.801041,0.00010975,true,0x7A,false,
"I2C [2]","data",-174.800924,0.0001082,true,,,0x97
"I2C [2]","start",-174.800804,5.00000006e-08,,,,
"I2C [2]","address",-174.800791,0.0001095,true,0x7A,true,
"I2C [2]","data",-174.800674,9.94e-05,true,,,0x00
"I2C [2]","data",-174.800569,9.94e-05,true,,,0x80
"I2C [2]","data",-174.800464,9.93e-05,false,,,0x97
"I2C [2]","stop",-174.800354,4.99999987e-08,,,,
"I2C [2]","start",-174.80033,5.00000006e-08,,,,
"I2C [2]","address",-174.800318,0.0001093,true,0x7A,false,
"I2C [2]","data",-174.800201,0.0001083,true,,,0x8B
"I2C [2]","start",-174.80008,5.00000006e-08,,,,
"I2C [2]","address",-174.800068,0.0001093,true,0x7A,true,
"I2C [2]","data",-174.799953,9.945e-05,true,,,0x00
"I2C [2]","data",-174.799848,9.945e-05,true,,,0x00
"I2C [2]","data",-174.799743,9.93e-05,false,,,0x91
"I2C [2]","stop",-174.799633,4.99999987e-08,,,,
"I2C [2]","start",-174.79961,5.00000006e-08,,,,
"I2C [2]","address",-174.799597,0.00010935,true,0x7A,false,
"I2C [2]","data",-174.79948,0.0001085,true,,,0x00
"I2C [2]","data",-174.799365,0.0001082,true,,,0x2F
"I2C [2]","data",-174.799249,0.0001082,true,,,0x0A
"I2C [2]","stop",-174.799123,4.99999987e-08,,,,
"I2C [2]","start",-174.79877,5.00000006e-08,,,,
"I2C [2]","address",-174.798757,0.00010935,true,0x70,false,
"I2C [2]","data",-174.79864,0.00010845,true,,,0x00
"I2C [2]","data",-174.798525,0.00010825,true,,,0x01
"I2C [2]","data",-174.798409,0.0001082,true,,,0xC9
"I2C [2]","stop",-174.798283,5.00000006e-08,,,,
"I2C [2]","start",-174.798272,5.00000006e-08,,,,
"I2C [2]","address",-174.79826,0.0001103,true,0x70,false,
"I2C [2]","data",-174.798142,0.00010825,true,,,0x88
"I2C [2]","start",-174.798022,5.00000006e-08,,,,
"I2C [2]","address",-174.798009,0.00010945,true,0x70,true,
"I2C [2]","data",-174.797894,9.945e-05,true,,,0x00
"I2C [2]","data",-174.797789,9.94e-05,true,,,0xE0
"I2C [2]","data",-174.797684,9.93e-05,false,,,0xB1
"I2C [2]","stop",-174.797574,5.00000006e-08,,,,
"I2C [2]","start",-174.797551,5.00000006e-08,,,,
"I2C [2]","address",-174.797538,0.00010945,true,0x70,false,
"I2C [2]","data",-174.797421,0.0001082,true,,,0x96
"I2C [2]","start",-174.797301,5.00000006e-08,,,,
"I2C [2]","address",-174.797288,0.0001096,true,0x70,true,
"I2C [2]","data",-174.797171,9.945e-05,true,,,0x00
"I2C [2]","data",-174.797066,9.94e-05,true,,,0x80
"I2C [2]","data",-174.796961,9.93e-05,false,,,0x35
"I2C [2]","stop",-174.796851,5.00000006e-08,,,,
"I2C [2]","start",-174.796827,4.99999987e-08,,,,
"I2C [2]","address",-174.796815,0.0001095,true,0x70,false,
"I2C [2]","data",-174.796698,0.00010815,true,,,0x8C
"I2C [2]","start",-174.796577,4.99999987e-08,,,,
"I2C [2]","address",-174.796565,0.00010925,true,0x70,true,
"I2C [2]","data",-174.796448,9.95e-05,true,,,0x00
"I2C [2]","data",-174.796343,9.935e-05,true,,,0x80
"I2C [2]","data",-174.796238,9.925e-05,false,,,0xCE
"I2C [2]","stop",-174.796128,5.00000006e-08,,,,
"I2C [2]","start",-174.796104,5.00000006e-08,,,,
"I2C [2]","address",-174.796092,0.00010955,true,0x70,false,
"I2C [2]","data",-174.795975,0.0001082,true,,,0x97
"I2C [2]","start",-174.795854,5.00000006e-08,,,,
"I2C [2]","address",-174.795841,0.00010925,true,0x70,true,
"I2C [2]","data",-174.795726,9.93e-05,true,,,0x4C
"I2C [2]","data",-174.795621,9.925e-05,true,,,0xCB
"I2C [2]","data",-174.795516,9.925e-05,false,,,0x72
"I2C [2]","stop",-174.795406,5.00000024e-08,,,,
"I2C [2]","start",-174.795382,5.00000006e-08,,,,
"I2C [2]","address",-174.79537,0.00010935,true,0x70,false,
"I2C [2]","data",-174.795253,0.0001082,true,,,0x8B
"I2C [2]","start",-174.795132,4.99999987e-08,,,,
"I2C [2]","address",-174.79512,0.0001093,true,0x70,true,
"I2C [2]","data",-174.795005,9.945e-05,true,,,0x00
"I2C [2]","data",-174.7949,9.94e-05,true,,,0x00
"I2C [2]","data",-174.794795,9.93e-05,false,,,0x25
"I2C [2]","stop",-174.794685,4.99999987e-08,,,,
"I2C [2]","start",-174.794661,5.00000006e-08,,,,
"I2C [2]","address",-174.794649,0.00010935,true,0x70,false,
"I2C [2]","data",-174.794532,0.00010845,true,,,0x00
"I2C [2]","data",-174.794417,0.0001082,true,,,0x2F
"I2C [2]","data",-174.794301,0.00010825,true,,,0x03
"I2C [2]","stop",-174.794175,4.99999987e-08,,,,
"I2C [2]","start",-174.793818,5.00000006e-08,,,,
"I2C [2]","address",-174.793805,0.0001095,true,0x74,false,
"I2C [2]","data",-174.793688,0.00010845,true,,,0x00
"I2C [2]","data",-174.793573,0.00010825,true,,,0x01
"I2C [2]","data",-174.793457,0.0001083,true,,,0x98
"I2C [2]","stop",-174.793331,4.99999987e-08,,,,
"I2C [2]","start",-174.79332,4.99999987e-08,,,,
"I2C [2]","address",-174.793307,0.0001095,true,0x74,false,
"I2C [2]","data",-174.793191,0.0001083,true,,,0x88
"I2C [2]","start",-174.79307,4.99999987e-08,,,,
"I2C [2]","address",-174.793057,0.0001105,true,0x74,true,
"I2C [2]","data",-174.792942,9.945e-05,true,,,0x00
"I2C [2]","data",-174.792837,9.94e-05,true,,,0xE0
"I2C [2]","data",-174.792732,9.935e-05,false,,,0xF9
"I2C [2]","stop",-174.792621,5.00000006e-08,,,,
"I2C [2]","start",-174.792598,4.99999987e-08,,,,
"I2C [2]","address",-174.792585,0.000111,true,0x74,false,
"I2C [2]","data",-174.792467,0.00010825,true,,,0x96
"I2C [2]","start",-174.792346,4.99999987e-08,,,,
"I2C [2]","address",-174.792334,0.00010945,true,0x74,true,
"I2C [2]","data",-174.792217,9.94e-05,true,,,0x00
"I2C [2]","data",-174.792112,9.94e-05,true,,,0x80
"I2C [2]","data",-174.792007,9.935e-05,false,,,0x7D
"I2C [2]","stop",-174.791896,4.99999987e-08,,,,
"I2C [2]","start",-174.791873,5.00000006e-08,,,,
"I2C [2]","address",-174.79186,0.0001093,true,0x74,false,
"I2C [2]","data",-174.791744,0.00010825,true,,,0x8C
"I2C [2]","start",-174.791623,5.00000006e-08,,,,
"I2C [2]","address",-174.79161,0.0001094,true,0x74,true,
"I2C [2]","data",-174.791494,9.945e-05,true,,,0x00
"I2C [2]","data",-174.791389,9.94e-05,true,,,0x80
"I2C [2]","data",-174.791284,9.93e-05,false,,,0x86
"I2C [2]","stop",-174.791173,4.99999987e-08,,,,
"I2C [2]","start",-174.79115,5.00000006e-08,,,,
"I2C [2]","address",-174.791137,0.00010975,true,0x74,false,
"I2C [2]","data",-174.791021,0.00010825,true,,,0x97
"I2C [2]","start",-174.7909,5.00000006e-08,,,,
"I2C [2]","address",-174.790887,0.00010945,true,0x74,true,
"I2C [2]","data",-174.79077,9.945e-05,true,,,0x00
"I2C [2]","data",-174.790665,9.94e-05,true,,,0x80
"I2C [2]","data",-174.79056,9.93e-05,false,,,0x6B
"I2C [2]","stop",-174.79045,5.00000006e-08,,,,
"I2C [2]","start",-174.790426,4.99999987e-08,,,,
"I2C [2]","address",-174.790414,0.00011005,true,0x74,false,
"I2C [2]","data",-174.790297,0.00010825,true,,,0x8B
"I2C [2]","start",-174.790176,4.99999987e-08,,,,
"I2C [2]","address",-174.790163,0.00010945,true,0x74,true,
"I2C [2]","data",-174.790049,9.945e-05,true,,,0x00
"I2C [2]","data",-174.789944,9.945e-05,true,,,0x00
"I2C [2]","data",-174.789839,9.93e-05,false,,,0x6D
"I2C [2]","stop",-174.789728,5.00000006e-08,,,,
"I2C [2]","start",-174.789705,5.00000006e-08,,,,
"I2C [2]","address",-174.789692,0.00011125,true,0x74,false,
"I2C [2]","data",-174.789574,0.00010845,true,,,0x00
"I2C [2]","data",-174.789458,0.00010815,true,,,0x2F
"I2C [2]","data",-174.789343,0.00010815,true,,,0x52
"I2C [2]","stop",-174.789216,5.00000006e-08,,,,
"I2C [2]","start",-174.756522,5.00000006e-08,,,,
"I2C [2]","address",-174.756509,0.0001105,true,0x61,false,
"I2C [2]","data",-174.756391,0.00010825,true,,,0x88
"I2C [2]","start",-174.756271,5.00000006e-08,,,,
"I2C [2]","address",-174.756258,0.00010945,true,0x61,true,
"I2C [2]","data",-174.756143,9.935e-05,true,,,0x82
"I2C [2]","data",-174.756039,9.93e-05,true,,,0xD9
"I2C [2]","data",-174.755934,9.935e-05,false,,,0xB7
"I2C [2]","stop",-174.755823,5.00000006e-08,,,,
"I2C [2]","start",-174.7558,5.00000006e-08,,,,
"I2C [2]","address",-174.755787,0.0001073,true,0x61,false,
"I2C [2]","data",-174.755669,0.0001082,true,,,0x96
"I2C [2]","start",-174.755548,4.99999987e-08,,,,
"I2C [2]","address",-174.755535,0.0001095,true,0x61,true,
"I2C [2]","data",-174.755421,9.935e-05,true,,,0x05
"I2C [2]","data",-174.755316,9.94e-05,true,,,0x08
"I2C [2]","data",-174.755211,9.935e-05,false,,,0xF0
"I2C [2]","stop",-174.7551,4.99999987e-08,,,,
"I2C [2]","start",-174.755077,4.99999987e-08,,,,
"I2C [2]","address",-174.755064,0.00010935,true,0x61,false,
"I2C [2]","data",-174.754948,0.0001083,true,,,0x8C
"I2C [2]","start",-174.754827,5.00000006e-08,,,,
"I2C [2]","address",-174.754814,0.0001072,true,0x61,true,
"I2C [2]","data",-174.754698,9.935e-05,true,,,0x0C
"I2C [2]","data",-174.754593,9.935e-05,true,,,0xF8
"I2C [2]","data",-174.754488,9.925e-05,false,,,0x68
"I2C [2]","stop",-174.754378,5.00000006e-08,,,,
"I2C [2]","start",-174.754354,4.99999987e-08,,,,
"I2C [2]","address",-174.754342,0.00010945,true,0x61,false,
"I2C [2]","data",-174.754225,0.00010825,true,,,0x97
"I2C [2]","start",-174.754104,5.00000006e-08,,,,
"I2C [2]","address",-174.754092,0.000111,true,0x61,true,
"I2C [2]","data",-174.753975,9.935e-05,true,,,0x03
"I2C [2]","data",-174.75387,9.935e-05,true,,,0x18
"I2C [2]","data",-174.753765,9.925e-05,false,,,0xE8
"I2C [2]","stop",-174.753655,4.99999987e-08,,,,
"I2C [2]","start",-174.753632,5.00000006e-08,,,,
"I2C [2]","address",-174.753619,0.00010935,true,0x61,false,
"I2C [2]","data",-174.753503,0.00010815,true,,,0x8B
"I2C [2]","start",-174.753382,5.00000006e-08,,,,
"I2C [2]","address",-174.753369,0.0001094,true,0x61,true,
"I2C [2]","data",-174.753255,9.935e-05,true,,,0x0E
"I2C [2]","data",-174.75315,9.935e-05,true,,,0x07
"I2C [2]","data",-174.753045,9.925e-05,false,,,0xD3
"I2C [2]","stop",-174.752934,5.00000006e-08,,,,
"I2C [2]","start",-174.752637,4.99999987e-08,,,,
"I2C [2]","address",-174.752624,0.0001095,true,0x62,false,
"I2C [2]","data",-174.752507,0.00010825,true,,,0x88
"I2C [2]","start",-174.752386,5.00000006e-08,,,,
"I2C [2]","address",-174.752374,0.0001094,true,0x62,true,
"I2C [2]","data",-174.752259,9.935e-05,true,,,0x82
"I2C [2]","data",-174.752154,9.93e-05,true,,,0xD9
"I2C [2]","data",-174.752049,9.935e-05,false,,,0x81
"I2C [2]","stop",-174.751939,5.00000006e-08,,,,
"I2C [2]","start",-174.751916,4.99999987e-08,,,,
"I2C [2]","address",-174.751903,0.00010935,true,0x62,false,
"I2C [2]","data",-174.751787,0.0001082,true,,,0x96
"I2C [2]","start",-174.751666,4.99999987e-08,,,,
"I2C [2]","address",-174.751653,0.00010935,true,0x62,true,
"I2C [2]","data",-174.751539,9.945e-05,true,,,0x00
"I2C [2]","data",-174.751434,9.94e-05,true,,,0x08
"I2C [2]","data",-174.751329,9.94e-05,false,,,0x87
"I2C [2]","stop",-174.751218,4.99999987e-08,,,,
"I2C [2]","start",-174.751195,5.00000006e-08,,,,
"I2C [2]","address",-174.751182,0.00010925,true,0x62,false,
"I2C [2]","data",-174.751066,0.0001083,true,,,0x8C
"I2C [2]","start",-174.750945,5.00000006e-08,,,,
"I2C [2]","address",-174.750932,0.00010945,true,0x62,true,
"I2C [2]","data",-174.750818,9.945e-05,true,,,0x00
"I2C [2]","data",-174.750713,9.94e-05,true,,,0xF8
"I2C [2]","data",-174.750608,9.925e-05,false,,,0xA2
"I2C [2]","stop",-174.750498,5.00000006e-08,,,,
"I2C [2]","start",-174.750474,4.99999987e-08,,,,
"I2C [2]","address",-174.750462,0.0001111,true,0x62,false,
"I2C [2]","data",-174.750343,0.0001082,true,,,0x97
"I2C [2]","start",-174.750223,5.00000006e-08,,,,
"I2C [2]","address",-174.75021,0.0001095,true,0x62,true,
"I2C [2]","data",-174.750095,9.945e-05,true,,,0x00
"I2C [2]","data",-174.74999,9.94e-05,true,,,0x18
"I2C [2]","data",-174.749885,9.935e-05,false,,,0xE1
"I2C [2]","stop",-174.749775,4.99999987e-08,,,,
"I2C [2]","start",-174.749752,5.00000006e-08,,,,
"I2C [2]","address",-174.749739,0.00010935,true,0x62,false,
"I2C [2]","data",-174.749623,0.00010825,true,,,0x8B
"I2C [2]","start",-174.749502,4.99999987e-08,,,,
"I2C [2]","address",-174.749489,0.0001096,true,0x62,true,
"I2C [2]","data",-174.749374,9.93e-05,true,,,0x25
"I2C [2]","data",-174.74927,9.945e-05,true,,,0x00
"I2C [2]","data",-174.749165,9.93e-05,false,,,0xC9
"I2C [2]","stop",-174.749054,5.00000006e-08,,,,
"I2C [2]","start",-174.748724,5.00000006e-08,,,,
"I2C [2]","address",-174.748712,0.0001103,true,0x72,false,
"I2C [2]","data",-174.748594,0.0001083,true,,,0x00
"I2C [2]","data",-174.748479,0.0001083,true,,,0x00
"I2C [2]","data",-174.748363,0.00010815,true,,,0x65
"I2C [2]","stop",-174.748237,5.00000006e-08,,,,
"I2C [2]","start",-174.748226,5.00000006e-08,,,,
"I2C [2]","address",-174.748213,0.00010935,true,0x72,false,
"I2C [2]","data",-174.748097,0.00010825,true,,,0x88
"I2C [2]","start",-174.747976,5.00000006e-08,,,,
"I2C [2]","address",-174.747964,0.00010935,true,0x72,true,
"I2C [2]","data",-174.747849,9.935e-05,true,,,0x82
"I2C [2]","data",-174.747744,9.93e-05,true,,,0xD9
"I2C [2]","data",-174.747639,9.925e-05,false,,,0xA6
"I2C [2]","stop",-174.747529,4.99999987e-08,,,,
"I2C [2]","start",-174.747506,4.99999987e-08,,,,
"I2C [2]","address",-174.747493,0.0001093,true,0x72,false,
"I2C [2]","data",-174.747377,0.0001082,true,,,0x96
"I2C [2]","start",-174.747256,5.00000006e-08,,,,
"I2C [2]","address",-174.747243,0.0001094,true,0x72,true,
"I2C [2]","data",-174.747129,9.935e-05,true,,,0x0A
"I2C [2]","data",-174.747024,9.94e-05,true,,,0x08
"I2C [2]","data",-174.746919,9.93e-05,false,,,0x22
"I2C [2]","stop",-174.746808,5.00000006e-08,,,,
"I2C [2]","start",-174.746785,4.99999987e-08,,,,
"I2C [2]","address",-174.746772,0.0001093,true,0x72,false,
"I2C [2]","data",-174.746656,0.00010825,true,,,0x8C
"I2C [2]","start",-174.746535,4.99999987e-08,,,,
"I2C [2]","address",-174.746523,0.00010945,true,0x72,true,
"I2C [2]","data",-174.746408,9.93e-05,true,,,0x28
"I2C [2]","data",-174.746303,9.935e-05,true,,,0xF8
"I2C [2]","data",-174.746198,9.93e-05,false,,,0x83
"I2C [2]","stop",-174.746088,4.99999987e-08,,,,
"I2C [2]","start",-174.746064,5.00000006e-08,,,,
"I2C [2]","address",-174.746052,0.00010925,true,0x72,false,
"I2C [2]","data",-174.745935,0.00010815,true,,,0x97
"I2C [2]","start",-174.745815,4.99999987e-08,,,,
"I2C [2]","address",-174.745802,0.00010925,true,0x72,true,
"I2C [2]","data",-174.745687,9.93e-05,true,,,0x0B
"I2C [2]","data",-174.745583,9.935e-05,true,,,0x08
"I2C [2]","data",-174.745478,9.93e-05,false,,,0x21
"I2C [2]","stop",-174.745367,4.99999987e-08,,,,
"I2C [2]","start",-174.745344,5.00000006e-08,,,,
"I2C [2]","address",-174.745331,0.0001111,true,0x72,false,
"I2C [2]","data",-174.745213,0.00010815,true,,,0x8B
"I2C [2]","start",-174.745092,5.00000006e-08,,,,
"I2C [2]","address",-174.74508,0.0001094,true,0x72,true,
"I2C [2]","data",-174.744965,9.93e-05,true,,,0xFA
"I2C [2]","data",-174.74486,9.935e-05,true,,,0x03
"I2C [2]","data",-174.744755,9.925e-05,false,,,0x9E
"I2C [2]","stop",-174.744645,5.00000006e-08,,,,
"I2C [2]","start",-174.744622,5.00000006e-08,,,,
"I2C [2]","address",-174.744609,0.0001096,true,0x72,false,
"I2C [2]","data",-174.744492,0.00010825,true,,,0x00
"I2C [2]","data",-174.744377,0.00010825,true,,,0x00
"I2C [2]","data",-174.744261,0.00010815,true,,,0x65
"I2C [2]","stop",-174.744135,5.00000006e-08,,,,
"I2C [2]","start",-174.74378,5.00000006e-08,,,,
"I2C [2]","address",-174.743767,0.0001094,true,0x76,false,
"I2C [2]","data",-174.743651,0.0001083,true,,,0x00
"I2C [2]","data",-174.743535,0.0001083,true,,,0x00
"I2C [2]","data",-174.74342,0.0001082,true,,,0x34
"I2C [2]","stop",-174.743293,4.99999987e-08,,,,
"I2C [2]","start",-174.743283,4.99999987e-08,,,,
"I2C [2]","address",-174.74327,0.0001104,true,0x76,false,
"I2C [2]","data",-174.743152,0.00010825,true,,,0x88
"I2C [2]","start",-174.743032,5.00000006e-08,,,,
"I2C [2]","address",-174.743019,0.0001094,true,0x76,true,
"I2C [2]","data",-174.742904,9.93e-05,true,,,0xBA
"I2C [2]","data",-174.742799,9.93e-05,true,,,0xD9
"I2C [2]","data",-174.742695,9.935e-05,false,,,0xBF
"I2C [2]","stop",-174.742584,4.99999987e-08,,,,
"I2C [2]","start",-174.742561,5.00000006e-08,,,,
"I2C [2]","address",-174.742548,0.0001093,true,0x76,false,
"I2C [2]","data",-174.742432,0.0001082,true,,,0x96
"I2C [2]","start",-174.742311,5.00000006e-08,,,,
"I2C [2]","address",-174.742298,0.0001095,true,0x76,true,
"I2C [2]","data",-174.742184,9.945e-05,true,,,0x00
"I2C [2]","data",-174.742079,9.94e-05,true,,,0x08
"I2C [2]","data",-174.741974,9.93e-05,false,,,0xE8
"I2C [2]","stop",-174.741863,5.00000006e-08,,,,
"I2C [2]","start",-174.74184,5.00000006e-08,,,,
"I2C [2]","address",-174.741828,0.00010935,true,0x76,false,
"I2C [2]","data",-174.741711,0.0001083,true,,,0x8C
"I2C [2]","start",-174.74159,5.00000006e-08,,,,
"I2C [2]","address",-174.741578,0.0001094,true,0x76,true,
"I2C [2]","data",-174.741463,9.945e-05,true,,,0x00
"I2C [2]","data",-174.741358,9.94e-05,true,,,0xF8
"I2C [2]","data",-174.741253,9.93e-05,false,,,0xCD
"I2C [2]","stop",-174.741143,5.00000006e-08,,,,
"I2C [2]","start",-174.741119,5.00000006e-08,,,,
"I2C [2]","address",-174.741107,0.00010945,true,0x76,false,
"I2C [2]","data",-174.74099,0.00010825,true,,,0x97
"I2C [2]","start",-174.740869,5.00000006e-08,,,,
"I2C [2]","address",-174.740857,0.00011015,true,0x76,true,
"I2C [2]","data",-174.740741,9.945e-05,true,,,0x00
"I2C [2]","data",-174.740636,9.94e-05,true,,,0x08
"I2C [2]","data",-174.740531,9.94e-05,false,,,0xFE
"I2C [2]","stop",-174.740421,5.00000006e-08,,,,
"I2C [2]","start",-174.740398,4.99999987e-08,,,,
"I2C [2]","address",-174.740385,0.0001093,true,0x76,false,
"I2C [2]","data",-174.740269,0.0001082,true,,,0x8B
"I2C [2]","start",-174.740148,5.00000006e-08,,,,
"I2C [2]","address",-174.740135,0.0001093,true,0x76,true,
"I2C [2]","data",-174.740021,9.935e-05,true,,,0x28
"I2C [2]","data",-174.739916,9.945e-05,true,,,0x00
"I2C [2]","data",-174.739811,9.935e-05,false,,,0x4F
"I2C [2]","stop",-174.7397,5.00000006e-08,,,,
"I2C [2]","start",-174.739677,5.00000006e-08,,,,
"I2C [2]","address",-174.739664,0.0001094,true,0x76,false,
"I2C [2]","data",-174.739548,0.0001083,true,,,0x00
"I2C [2]","data",-174.739432,0.0001083,true,,,0x00
"I2C [2]","data",-174.739317,0.0001082,true,,,0x34
"I2C [2]","stop",-174.73919,5.00000006e-08,,,,
"I2C [2]","start",-174.738833,5.00000006e-08,,,,
"I2C [2]","address",-174.738821,0.00010985,true,0x78,false,
"I2C [2]","data",-174.738703,0.0001085,true,,,0x00
"I2C [2]","data",-174.738588,0.0001083,true,,,0x00
"I2C [2]","data",-174.738472,0.0001082,true,,,0x6C
"I2C [2]","stop",-174.738346,5.00000006e-08,,,,
"I2C [2]","start",-174.738335,4.99999987e-08,,,,
"I2C [2]","address",-174.738323,0.00010935,true,0x78,false,
"I2C [2]","data",-174.738206,0.0001083,true,,,0x88
"I2C [2]","start",-174.738085,4.99999987e-08,,,,
"I2C [2]","address",-174.738073,0.0001094,true,0x78,true,
"I2C [2]","data",-174.737958,9.93e-05,true,,,0xBF
"I2C [2]","data",-174.737853,9.935e-05,true,,,0xE0
"I2C [2]","data",-174.737748,9.925e-05,false,,,0xAD
"I2C [2]","stop",-174.737638,5.00000006e-08,,,,
"I2C [2]","start",-174.737615,5.00000006e-08,,,,
"I2C [2]","address",-174.737602,0.00010935,true,0x78,false,
"I2C [2]","data",-174.737485,0.00010815,true,,,0x96
"I2C [2]","start",-174.737365,4.99999987e-08,,,,
"I2C [2]","address",-174.737352,0.00010945,true,0x78,true,
"I2C [2]","data",-174.737236,9.925e-05,true,,,0xE0
"I2C [2]","data",-174.737131,9.925e-05,true,,,0xBA
"I2C [2]","data",-174.737026,9.93e-05,false,,,0x40
"I2C [2]","stop",-174.736916,5.00000006e-08,,,,
"I2C [2]","start",-174.736892,4.99999987e-08,,,,
"I2C [2]","address",-174.73688,0.00010995,true,0x78,false,
"I2C [2]","data",-174.736762,0.0001082,true,,,0x8C
"I2C [2]","start",-174.736642,5.00000006e-08,,,,
"I2C [2]","address",-174.736629,0.0001094,true,0x78,true,
"I2C [2]","data",-174.736513,9.93e-05,true,,,0x80
"I2C [2]","data",-174.736408,9.925e-05,true,,,0xBA
"I2C [2]","data",-174.736303,9.925e-05,false,,,0x4E
"I2C [2]","stop",-174.736193,4.99999987e-08,,,,
"I2C [2]","start",-174.73617,5.00000006e-08,,,,
"I2C [2]","address",-174.736157,0.00010935,true,0x78,false,
"I2C [2]","data",-174.736041,0.00010815,true,,,0x97
"I2C [2]","start",-174.73592,5.00000006e-08,,,,
"I2C [2]","address",-174.735907,0.0001105,true,0x78,true,
"I2C [2]","data",-174.73579,9.925e-05,true,,,0xEE
"I2C [2]","data",-174.735685,9.935e-05,true,,,0xD2
"I2C [2]","data",-174.73558,9.935e-05,false,,,0x9F
"I2C [2]","stop",-174.73547,4.99999987e-08,,,,
"I2C [2]","start",-174.735446,5.00000006e-08,,,,
"I2C [2]","address",-174.735434,0.0001105,true,0x78,false,
"I2C [2]","data",-174.735316,0.0001082,true,,,0x8B
"I2C [2]","start",-174.735195,4.99999987e-08,,,,
"I2C [2]","address",-174.735183,0.0001095,true,0x78,true,
"I2C [2]","data",-174.735068,9.925e-05,true,,,0xB5
"I2C [2]","data",-174.734963,9.945e-05,true,,,0x00
"I2C [2]","data",-174.734858,9.93e-05,false,,,0xBB
"I2C [2]","stop",-174.734748,5.00000006e-08,,,,
"I2C [2]","start",-174.734724,4.99999987e-08,,,,
"I2C [2]","address",-174.734712,0.0001096,true,0x78,false,
"I2C [2]","data",-174.734595,0.00010845,true,,,0x00
"I2C [2]","data",-174.734479,0.00010825,true,,,0x2F
"I2C [2]","data",-174.734364,0.0001082,true,,,0xA1
"I2C [2]","stop",-174.734238,5.00000006e-08,,,,
"I2C [2]","start",-174.733885,5.00000006e-08,,,,
"I2C [2]","address",-174.733873,0.00011015,true,0x7A,false,
"I2C [2]","data",-174.733755,0.00010845,true,,,0x00
"I2C [2]","data",-174.73364,0.0001083,true,,,0x00
"I2C [2]","data",-174.733524,0.0001083,true,,,0xC7
"I2C [2]","stop",-174.733398,4.99999987e-08,,,,
"I2C [2]","start",-174.733387,5.00000006e-08,,,,
"I2C [2]","address",-174.733374,0.0001093,true,0x7A,false,
"I2C [2]","data",-174.733258,0.00010825,true,,,0x88
"I2C [2]","start",-174.733137,5.00000006e-08,,,,
"I2C [2]","address",-174.733125,0.00010925,true,0x7A,true,
"I2C [2]","data",-174.73301,9.945e-05,true,,,0x00
"I2C [2]","data",-174.732905,9.94e-05,true,,,0xE0
"I2C [2]","data",-174.7328,9.935e-05,false,,,0x05
"I2C [2]","stop",-174.73269,5.00000006e-08,,,,
"I2C [2]","start",-174.732666,4.99999987e-08,,,,
"I2C [2]","address",-174.732654,0.00010945,true,0x7A,false,
"I2C [2]","data",-174.732537,0.0001082,true,,,0x96
"I2C [2]","start",-174.732416,5.00000006e-08,,,,
"I2C [2]","address",-174.732404,0.00010945,true,0x7A,true,
"I2C [2]","data",-174.732287,9.945e-05,true,,,0x00
"I2C [2]","data",-174.732182,9.94e-05,true,,,0x80
"I2C [2]","data",-174.732077,9.935e-05,false,,,0x81
"I2C [2]","stop",-174.731966,5.00000006e-08,,,,
"I2C [2]","start",-174.731943,4.99999987e-08,,,,
"I2C [2]","address",-174.73193,0.0001094,true,0x7A,false,
"I2C [2]","data",-174.731814,0.00010825,true,,,0x8C
"I2C [2]","start",-174.731693,5.00000006e-08,,,,
"I2C [2]","address",-174.73168,0.00011105,true,0x7A,true,
"I2C [2]","data",-174.731562,9.945e-05,true,,,0x00
"I2C [2]","data",-174.731457,9.94e-05,true,,,0x80
"I2C [2]","data",-174.731352,9.93e-05,false,,,0x7A
"I2C [2]","stop",-174.731242,5.00000006e-08,,,,
"I2C [2]","start",-174.731218,5.00000006e-08,,,,
"I2C [2]","address",-174.731206,0.00011,true,0x7A,false,
"I2C [2]","data",-174.731089,0.0001082,true,,,0x97
"I2C [2]","start",-174.730968,5.00000006e-08,,,,
"I2C [2]","address",-174.730955,0.0001095,true,0x7A,true,
"I2C [2]","data",-174.730838,9.945e-05,true,,,0x00
"I2C [2]","data",-174.730733,9.94e-05,true,,,0x80
"I2C [2]","data",-174.730628,9.93e-05,false,,,0x97
"I2C [2]","stop",-174.730518,5.00000006e-08,,,,
"I2C [2]","start",-174.730495,5.00000006e-08,,,,
"I2C [2]","address",-174.730482,0.00010935,true,0x7A,false,
"I2C [2]","data",-174.730365,0.0001082,true,,,0x8B
"I2C [2]","start",-174.730245,5.00000006e-08,,,,
"I2C [2]","address",-174.730232,0.00010925,true,0x7A,true,
"I2C [2]","data",-174.730118,9.945e-05,true,,,0x00
"I2C [2]","data",-174.730013,9.945e-05,true,,,0x00
"I2C [2]","data",-174.729908,9.93e-05,false,,,0x91
"I2C [2]","stop",-174.729797,5.00000006e-08,,,,
"I2C [2]","start",-174.729774,5.00000006e-08,,,,
"I2C [2]","address",-174.729761,0.00010945,true,0x7A,false,
"I2C [2]","data",-174.729645,0.0001084,true,,,0x00
"I2C [2]","data",-174.729529,0.00010825,true,,,0x2F
"I2C [2]","data",-174.729414,0.00010815,true,,,0x0A
"I2C [2]","stop",-174.729287,5.00000006e-08,,,,
"I2C [2]","start",-174.728933,5.00000006e-08,,,,
"I2C [2]","address",-174.72892,0.00010945,true,0x70,false,
"I2C [2]","data",-174.728804,0.0001084,true,,,0x00
"I2C [2]","data",-174.728688,0.00010825,true,,,0x00
"I2C [2]","data",-174.728573,0.0001082,true,,,0xCE
"I2C [2]","stop",-174.728446,5.00000006e-08,,,,
"I2C [2]","start",-174.728436,5.00000006e-08,,,,
"I2C [2]","address",-174.728423,0.00010935,true,0x70,false,
"I2C [2]","data",-174.728306,0.0001082,true,,,0x88
"I2C [2]","start",-174.728186,5.00000006e-08,,,,
"I2C [2]","address",-174.728173,0.00010935,true,0x70,true,
"I2C [2]","data",-174.728058,9.935e-05,true,,,0xC0
"I2C [2]","data",-174.727954,9.935e-05,true,,,0xE0
"I2C [2]","data",-174.727849,9.925e-05,false,,,0x5C
"I2C [2]","stop",-174.727738,5.00000006e-08,,,,
"I2C [2]","start",-174.727715,5.00000006e-08,,,,
"I2C [2]","address",-174.727702,0.0001099,true,0x70,false,
"I2C [2]","data",-174.727585,0.00010815,true,,,0x96
"I2C [2]","start",-174.727465,4.99999987e-08,,,,
"I2C [2]","address",-174.727452,0.0001095,true,0x70,true,
"I2C [2]","data",-174.727336,9.935e-05,true,,,0x68
"I2C [2]","data",-174.727231,9.93e-05,true,,,0xCA
"I2C [2]","data",-174.727126,9.93e-05,false,,,0x99
"I2C [2]","stop",-174.727016,5.00000006e-08,,,,
"I2C [2]","start",-174.726992,4.99999987e-08,,,,
"I2C [2]","address",-174.72698,0.0001095,true,0x70,false,
"I2C [2]","data",-174.726863,0.00010825,true,,,0x8C
"I2C [2]","start",-174.726742,5.00000006e-08,,,,
"I2C [2]","address",-174.72673,0.00011005,true,0x70,true,
"I2C [2]","data",-174.726613,9.93e-05,true,,,0xC0
"I2C [2]","data",-174.726509,9.935e-05,true,,,0xC2
"I2C [2]","data",-174.726404,9.925e-05,false,,,0xEA
"I2C [2]","stop",-174.726293,4.99999987e-08,,,,
"I2C [2]","start",-174.72627,5.00000006e-08,,,,
"I2C [2]","address",-174.726257,0.00010935,true,0x70,false,
"I2C [2]","data",-174.726141,0.00010825,true,,,0x97
"I2C [2]","start",-174.72602,5.00000006e-08,,,,
"I2C [2]","address",-174.726007,0.0001096,true,0x70,true,
"I2C [2]","data",-174.725891,9.92e-05,true,,,0xDC
"I2C [2]","data",-174.725786,9.93e-05,true,,,0xCA
"I2C [2]","data",-174.725682,9.925e-05,false,,,0x94
"I2C [2]","stop",-174.725571,4.99999987e-08,,,,
"I2C [2]","start",-174.725548,5.00000006e-08,,,,
"I2C [2]","address",-174.725535,0.00010945,true,0x70,false,
"I2C [2]","data",-174.725419,0.0001082,true,,,0x8B
"I2C [2]","start",-174.725298,4.99999987e-08,,,,
"I2C [2]","address",-174.725285,0.0001095,true,0x70,true,
"I2C [2]","data",-174.725171,9.935e-05,true,,,0x81
"I2C [2]","data",-174.725066,9.945e-05,true,,,0x00
"I2C [2]","data",-174.724961,9.93e-05,false,,,0x86
"I2C [2]","stop",-174.724851,4.99999987e-08,,,,
"I2C [2]","start",-174.724827,5.00000006e-08,,,,
"I2C [2]","address",-174.724815,0.0001095,true,0x70,false,
"I2C [2]","data",-174.724698,0.00010845,true,,,0x00
"I2C [2]","data",-174.724582,0.00010825,true,,,0x2F
"I2C [2]","data",-174.724467,0.00010825,true,,,0x03
"I2C [2]","stop",-174.72434,5.00000006e-08,,,,
"I2C [2]","start",-174.723987,4.99999987e-08,,,,
"I2C [2]","address",-174.723974,0.0001095,true,0x74,false,
"I2C [2]","data",-174.723857,0.00010845,true,,,0x00
"I2C [2]","data",-174.723742,0.0001083,true,,,0x00
"I2C [2]","data",-174.723626,0.00010825,true,,,0x9F
"I2C [2]","stop",-174.7235,5.00000006e-08,,,,
"I2C [2]","start",-174.723489,5.00000006e-08,,,,
"I2C [2]","address",-174.723476,0.0001112,true,0x74,false,
"I2C [2]","data",-174.723358,0.0001083,true,,,0x88
"I2C [2]","start",-174.723237,5.00000006e-08,,,,
"I2C [2]","address",-174.723225,0.0001096,true,0x74,true,
"I2C [2]","data",-174.72311,9.945e-05,true,,,0x00
"I2C [2]","data",-174.723005,9.94e-05,true,,,0xE0
"I2C [2]","data",-174.7229,9.935e-05,false,,,0xF9
"I2C [2]","stop",-174.722789,4.99999987e-08,,,,
"I2C [2]","start",-174.722766,5.00000006e-08,,,,
"I2C [2]","address",-174.722753,0.0001093,true,0x74,false,
"I2C [2]","data",-174.722637,0.0001082,true,,,0x96
"I2C [2]","start",-174.722516,5.00000006e-08,,,,
"I2C [2]","address",-174.722504,0.0001094,true,0x74,true,
"I2C [2]","data",-174.722387,9.945e-05,true,,,0x00
"I2C [2]","data",-174.722282,9.94e-05,true,,,0x80
"I2C [2]","data",-174.722177,9.935e-05,false,,,0x7D
"I2C [2]","stop",-174.722066,5.00000006e-08,,,,
"I2C [2]","start",-174.722043,4.99999987e-08,,,,
"I2C [2]","address",-174.72203,0.0001093,true,0x74,false,
"I2C [2]","data",-174.721914,0.00010825,true,,,0x8C
"I2C [2]","start",-174.721793,5.00000006e-08,,,,
"I2C [2]","address",-174.72178,0.00010945,true,0x74,true,
"I2C [2]","data",-174.721664,9.95e-05,true,,,0x00
"I2C [2]","data",-174.721559,9.94e-05,true,,,0x80
"I2C [2]","data",-174.721454,9.93e-05,false,,,0x86
"I2C [2]","stop",-174.721343,5.00000006e-08,,,,
"I2C [2]","start",-174.72132,5.00000006e-08,,,,
"I2C [2]","address",-174.721307,0.0001093,true,0x74,false,
"I2C [2]","data",-174.721191,0.00010815,true,,,0x97
"I2C [2]","start",-174.72107,5.00000006e-08,,,,
"I2C [2]","address",-174.721058,0.0001092,true,0x74,true,
"I2C [2]","data",-174.720941,9.945e-05,true,,,0x00
"I2C [2]","data",-174.720836,9.935e-05,true,,,0x80
"I2C [2]","data",-174.720731,9.925e-05,false,,,0x6B
"I2C [2]","stop",-174.72062,5.00000006e-08,,,,
"I2C [2]","start",-174.720597,5.00000006e-08,,,,
"I2C [2]","address",-174.720584,0.0001098,true,0x74,false,
"I2C [2]","data",-174.720467,0.00010815,true,,,0x8B
"I2C [2]","start",-174.720347,4.99999987e-08,,,,
"I2C [2]","address",-174.720334,0.00010945,true,0x74,true,
"I2C [2]","data",-174.720219,9.94e-05,true,,,0x00
"I2C [2]","data",-174.720114,9.94e-05,true,,,0x00
"I2C [2]","data",-174.720009,9.925e-05,false,,,0x6D
"I2C [2]","stop",-174.719899,4.99999987e-08,,,,
"I2C [2]","start",-174.719876,5.00000006e-08,,,,
"I2C [2]","address",-174.719863,0.0001113,true,0x74,false,
"I2C [2]","data",-174.719745,0.0001084,true,,,0x00
"I2C [2]","data",-174.719629,0.00010815,true,,,0x2F
"I2C [2]","data",-174.719514,0.0001081,true,,,0x52
"I2C [2]","stop",-174.719387,5.00000006e-08,,,,
"I2C [2]","start",-174.719031,5.00000006e-08,,,,
"I2C [2]","address",-174.719018,0.0001093,true,0x72,false,
"I2C [2]","data",-174.718902,0.0001083,true,,,0x00
"I2C [2]","data",-174.718786,0.00010825,true,,,0x01
"I2C [2]","data",-174.718671,0.0001082,true,,,0x62
"I2C [2]","stop",-174.718544,4.99999987e-08,,,,
"I2C [2]","start",-174.718534,4.99999987e-08,,,,
"I2C [2]","address",-174.718521,0.00011,true,0x72,false,
"I2C [2]","data",-174.718404,0.00010825,true,,,0x88
"I2C [2]","start",-174.718283,4.99999987e-08,,,,
"I2C [2]","address",-174.718271,0.00010925,true,0x72,true,
"I2C [2]","data",-174.718156,9.93e-05,true,,,0x88
"I2C [2]","data",-174.718051,9.94e-05,true,,,0xE0
"I2C [2]","data",-174.717946,9.93e-05,false,,,0x8B
"I2C [2]","stop",-174.717836,5.00000006e-08,,,,
"I2C [2]","start",-174.717813,5.00000006e-08,,,,
"I2C [2]","address",-174.7178,0.00010725,true,0x72,false,
"I2C [2]","data",-174.717681,0.0001082,true,,,0x96
"I2C [2]","start",-174.717561,5.00000006e-08,,,,
"I2C [2]","address",-174.717548,0.0001095,true,0x72,true,
"I2C [2]","data",-174.717433,9.94e-05,true,,,0x01
"I2C [2]","data",-174.717328,9.945e-05,true,,,0x00
"I2C [2]","data",-174.717223,9.93e-05,false,,,0x8D
"I2C [2]","stop",-174.717113,5.00000006e-08,,,,
"I2C [2]","start",-174.71709,5.00000006e-08,,,,
"I2C [2]","address",-174.717077,0.00010935,true,0x72,false,
"I2C [2]","data",-174.716961,0.00010825,true,,,0x8C
"I2C [2]","start",-174.71684,5.00000006e-08,,,,
"I2C [2]","address",-174.716827,0.0001072,true,0x72,true,
"I2C [2]","data",-174.716711,9.945e-05,true,,,0x00
"I2C [2]","data",-174.716606,9.945e-05,true,,,0x00
"I2C [2]","data",-174.716501,9.935e-05,false,,,0x63
"I2C [2]","stop",-174.71639,5.00000006e-08,,,,
"I2C [2]","start",-174.716367,5.00000006e-08,,,,
"I2C [2]","address",-174.716354,0.00010935,true,0x72,false,
"I2C [2]","data",-174.716238,0.0001082,true,,,0x97
"I2C [2]","start",-174.716117,5.00000006e-08,,,,
"I2C [2]","address",-174.716104,0.00010925,true,0x72,true,
"I2C [2]","data",-174.71599,9.945e-05,true,,,0x00
"I2C [2]","data",-174.715885,9.945e-05,true,,,0x00
"I2C [2]","data",-174.71578,9.93e-05,false,,,0x8E
"I2C [2]","stop",-174.71567,5.00000006e-08,,,,
"I2C [2]","start",-174.715646,5.00000006e-08,,,,
"I2C [2]","address",-174.715634,0.00011035,true,0x72,false,
"I2C [2]","data",-174.715516,0.0001082,true,,,0x8B
"I2C [2]","start",-174.715395,4.99999987e-08,,,,
"I2C [2]","address",-174.715383,0.00010945,true,0x72,true,
"I2C [2]","data",-174.715268,9.935e-05,true,,,0x83
"I2C [2]","data",-174.715163,9.945e-05,true,,,0x00
"I2C [2]","data",-174.715058,9.93e-05,false,,,0x88
"I2C [2]","stop",-174.714948,5.00000006e-08,,,,
"I2C [2]","start",-174.714925,5.00000006e-08,,,,
"I2C [2]","address",-174.714912,0.00010935,true,0x72,false,
"I2C [2]","data",-174.714795,0.0001083,true,,,0x00
"I2C [2]","data",-174.71468,0.0001083,true,,,0x00
"I2C [2]","data",-174.714564,0.00010815,true,,,0x65
"I2C [2]","stop",-174.714438,5.00000006e-08,,,,
"I2C [2]","start",-174.714084,5.00000006e-08,,,,
"I2C [2]","address",-174.714072,0.00011015,true,0x76,false,
"I2C [2]","data",-174.713954,0.0001083,true,,,0x00
"I2C [2]","data",-174.713839,0.00010825,true,,,0x01
"I2C [2]","data",-174.713723,0.00010825,true,,,0x33
"I2C [2]","stop",-174.713597,5.00000006e-08,,,,
"I2C [2]","start",-174.713586,4.99999987e-08,,,,
"I2C [2]","address",-174.713574,0.0001096,true,0x76,false,
"I2C [2]","data",-174.713457,0.00010825,true,,,0x88
"I2C [2]","start",-174.713336,5.00000006e-08,,,,
"I2C [2]","address",-174.713323,0.0001094,true,0x76,true,
"I2C [2]","data",-174.713209,9.935e-05,true,,,0x87
"I2C [2]","data",-174.713104,9.94e-05,true,,,0xE0
"I2C [2]","data",-174.712999,9.94e-05,false,,,0x00
"I2C [2]","stop",-174.712889,5.00000006e-08,,,,
"I2C [2]","start",-174.712865,4.99999987e-08,,,,
"I2C [2]","address",-174.712853,0.0001072,true,0x76,false,
"I2C [2]","data",-174.712734,0.00010815,true,,,0x96
"I2C [2]","start",-174.712613,5.00000006e-08,,,,
"I2C [2]","address",-174.712601,0.0001094,true,0x76,true,
"I2C [2]","data",-174.712486,9.94e-05,true,,,0x00
"I2C [2]","data",-174.712381,9.94e-05,true,,,0x00
"I2C [2]","data",-174.712276,9.925e-05,false,,,0xD0
"I2C [2]","stop",-174.712166,5.00000006e-08,,,,
"I2C [2]","start",-174.712142,4.99999987e-08,,,,
"I2C [2]","address",-174.71213,0.00010925,true,0x76,false,
"I2C [2]","data",-174.712013,0.00010825,true,,,0x8C
"I2C [2]","start",-174.711893,5.00000006e-08,,,,
"I2C [2]","address",-174.71188,0.0001072,true,0x76,true,
"I2C [2]","data",-174.711763,9.94e-05,true,,,0x00
"I2C [2]","data",-174.711658,9.94e-05,true,,,0x00
"I2C [2]","data",-174.711553,9.925e-05,false,,,0x2B
"I2C [2]","stop",-174.711443,4.99999987e-08,,,,
"I2C [2]","start",-174.71142,5.00000006e-08,,,,
"I2C [2]","address",-174.711407,0.0001093,true,0x76,false,
"I2C [2]","data",-174.711291,0.00010815,true,,,0x97
"I2C [2]","start",-174.71117,4.99999987e-08,,,,
"I2C [2]","address",-174.711157,0.0001092,true,0x76,true,
"I2C [2]","data",-174.711043,9.945e-05,true,,,0x00
"I2C [2]","data",-174.710938,9.94e-05,true,,,0x00
"I2C [2]","data",-174.710833,9.93e-05,false,,,0xC6
"I2C [2]","stop",-174.710722,5.00000006e-08,,,,
"I2C [2]","start",-174.710699,5.00000006e-08,,,,
"I2C [2]","address",-174.710686,0.0001093,true,0x76,false,
"I2C [2]","data",-174.71057,0.0001082,true,,,0x8B
"I2C [2]","start",-174.710449,5.00000006e-08,,,,
"I2C [2]","address",-174.710437,0.0001093,true,0x76,true,
"I2C [2]","data",-174.710322,9.945e-05,true,,,0x00
"I2C [2]","data",-174.710217,9.945e-05,true,,,0x00
"I2C [2]","data",-174.710112,9.93e-05,false,,,0x49
"I2C [2]","stop",-174.710002,4.99999987e-08,,,,
"I2C [2]","start",-174.709978,5.00000006e-08,,,,
"I2C [2]","address",-174.709966,0.0001111,true,0x76,false,
"I2C [2]","data",-174.709847,0.0001083,true,,,0x00
"I2C [2]","data",-174.709732,0.0001083,true,,,0x00
"I2C [2]","data",-174.709616,0.00010825,true,,,0x34
"I2C [2]","stop",-174.70949,4.99999987e-08,,,,
"I2C [2]","start",-174.709133,4.99999987e-08,,,,
"I2C [2]","address",-174.709121,0.00010935,true,0x78,false,
"I2C [2]","data",-174.709004,0.00010845,true,,,0x00
"I2C [2]","data",-174.708889,0.00010825,true,,,0x01
"I2C [2]","data",-174.708773,0.00010815,true,,,0x6B
"I2C [2]","stop",-174.708647,4.99999987e-08,,,,
"I2C [2]","start",-174.708636,4.99999987e-08,,,,
"I2C [2]","address",-174.708623,0.00010965,true,0x78,false,
"I2C [2]","data",-174.708507,0.00010825,true,,,0x88
"I2C [2]","start",-174.708386,5.00000006e-08,,,,
"I2C [2]","address",-174.708373,0.00010935,true,0x78,true,
"I2C [2]","data",-174.708259,9.945e-05,true,,,0x00
"I2C [2]","data",-174.708154,9.94e-05,true,,,0xE0
"I2C [2]","data",-174.708049,9.935e-05,false,,,0x21
"I2C [2]","stop",-174.707938,5.00000006e-08,,,,
"I2C [2]","start",-174.707915,4.99999987e-08,,,,
"I2C [2]","address",-174.707902,0.00011105,true,0x78,false,
"I2C [2]","data",-174.707784,0.0001082,true,,,0x96
"I2C [2]","start",-174.707663,4.99999987e-08,,,,
"I2C [2]","address",-174.707651,0.00010945,true,0x78,true,
"I2C [2]","data",-174.707534,9.945e-05,true,,,0x00
"I2C [2]","data",-174.707429,9.94e-05,true,,,0x80
"I2C [2]","data",-174.707324,9.925e-05,false,,,0xA5
"I2C [2]","stop",-174.707214,4.99999987e-08,,,,
"I2C [2]","start",-174.70719,5.00000006e-08,,,,
"I2C [2]","address",-174.707178,0.00010955,true,0x78,false,
"I2C [2]","data",-174.707061,0.00010825,true,,,0x8C
"I2C [2]","start",-174.70694,4.99999987e-08,,,,
"I2C [2]","address",-174.706927,0.00010945,true,0x78,true,
"I2C [2]","data",-174.706811,9.945e-05,true,,,0x00
"I2C [2]","data",-174.706706,9.94e-05,true,,,0x80
"I2C [2]","data",-174.706601,9.93e-05,false,,,0x5E
"I2C [2]","stop",-174.70649,5.00000006e-08,,,,
"I2C [2]","start",-174.706467,4.99999987e-08,,,,
"I2C [2]","address",-174.706454,0.00010935,true,0x78,false,
"I2C [2]","data",-174.706338,0.00010825,true,,,0x97
"I2C [2]","start",-174.706217,5.00000006e-08,,,,
"I2C [2]","address",-174.706204,0.0001094,true,0x78,true,
"I2C [2]","data",-174.706088,9.925e-05,true,,,0xD8
"I2C [2]","data",-174.705983,9.93e-05,true,,,0xD2
"I2C [2]","data",-174.705878,9.935e-05,false,,,0x18
"I2C [2]","stop",-174.705768,5.00000006e-08,,,,
"I2C [2]","start",-174.705745,5.00000006e-08,,,,
"I2C [2]","address",-174.705732,0.0001096,true,0x78,false,
"I2C [2]","data",-174.705615,0.0001083,true,,,0x8B
"I2C [2]","start",-174.705494,5.00000006e-08,,,,
"I2C [2]","address",-174.705482,0.00010935,true,0x78,true,
"I2C [2]","data",-174.705367,9.945e-05,true,,,0x00
"I2C [2]","data",-174.705262,9.945e-05,true,,,0x00
"I2C [2]","data",-174.705157,9.93e-05,false,,,0xB5
"I2C [2]","stop",-174.705047,5.00000006e-08,,,,
"I2C [2]","start",-174.705024,5.00000006e-08,,,,
"I2C [2]","address",-174.705011,0.00010935,true,0x78,false,
"I2C [2]","data",-174.704894,0.00010845,true,,,0x00
"I2C [2]","data",-174.704779,0.0001082,true,,,0x2F
"I2C [2]","data",-174.704663,0.00010815,true,,,0xA1
"I2C [2]","stop",-174.704537,4.99999987e-08,,,,
"I2C [2]","start",-174.704184,5.00000006e-08,,,,
"I2C [2]","address",-174.704171,0.00010925,true,0x7A,false,
"I2C [2]","data",-174.704055,0.0001084,true,,,0x00
"I2C [2]","data",-174.703939,0.0001082,true,,,0x01
"I2C [2]","data",-174.703824,0.00010825,true,,,0xC0
"I2C [2]","stop",-174.703697,5.00000006e-08,,,,
"I2C [2]","start",-174.703687,5.00000006e-08,,,,
"I2C [2]","address",-174.703674,0.00010925,true,0x7A,false,
"I2C [2]","data",-174.703558,0.0001082,true,,,0x88
"I2C [2]","start",-174.703437,4.99999987e-08,,,,
"I2C [2]","address",-174.703424,0.00010925,true,0x7A,true,
"I2C [2]","data",-174.70331,9.94e-05,true,,,0x00
"I2C [2]","data",-174.703205,9.935e-05,true,,,0xE0
"I2C [2]","data",-174.7031,9.93e-05,false,,,0x05
"I2C [2]","stop",-174.70299,5.00000006e-08,,,,
"I2C [2]","start",-174.702966,5.00000006e-08,,,,
"I2C [2]","address",-174.702954,0.00010945,true,0x7A,false,
"I2C [2]","data",-174.702837,0.00010815,true,,,0x96
"I2C [2]","start",-174.702716,5.00000006e-08,,,,
"I2C [2]","address",-174.702704,0.00010945,true,0x7A,true,
"I2C [2]","data",-174.702586,9.94e-05,true,,,0x00
"I2C [2]","data",-174.702481,9.935e-05,true,,,0x80
"I2C [2]","data",-174.702377,9.935e-05,false,,,0x81
"I2C [2]","stop",-174.702266,5.00000006e-08,,,,
